[16:35:23.776] Entering Configuration Mode Successful!
[16:35:23.779] Setting Baudrate Successful!
[16:35:23.781] MCP2515 Initialized Successfully!
[16:35:23.784] MCP2515 Library Receive Example...
[16:35:23.787] Message Sent Successfully!
[16:35:23.789] Message Sent Successfully!
[16:35:23.808] Extended ID: 0x05124504  DLC: 1  Data: 0x4FBATTERY: 4F
[16:35:23.820] Extended ID: 0x03FF1504  DLC: 8  Data: 0x00 0x00 0x00 0x4F 0x00 0x00 0x00 0x00ECU: 4F
# EVENT [16:35:34.356]: Starting unlock
[16:35:34.963] Extended ID: 0x02181606  DLC: 8  Data: 0x01 0x00 0x19 0x00 0x01 0x03 0x02 0x00
[16:35:35.049] Extended ID: 0x03FF1000  DLC: 8  Data: 0x00 0x00 0x11 0x22 0x00 0x00 0x00 0x01
[16:35:35.060] Extended ID: 0x03FF1001  DLC: 8  Data: 0x00 0x00 0x00 0x00 0x00 0x00 0x00 0x00
[16:35:35.070] Extended ID: 0x03FF1603  DLC: 8  Data: 0x00 0x00 0xCD 0x23 0x00 0x00 0x00 0x00
[16:35:35.075] Extended ID: 0x02181606  DLC: 8  Data: 0x01 0x00 0x19 0x00 0x01 0x03 0x02 0x00
[16:35:35.084] Extended ID: 0x03FF1605  DLC: 8  Data: 0x01 0x00 0x00 0x00 0x00 0x00 0x00 0x00
[16:35:35.089] Extended ID: 0x05FF4610  DLC: 8  Data: 0x00 0x00 0xCC 0x95 0xFF 0xFF 0xFF 0xBE
[16:35:35.098] Extended ID: 0x03121606  DLC: 8  Data: 0x01 0x00 0x00 0x00 0x00 0x00 0x00 0x00
[16:35:35.133] Extended ID: 0x03FF1600  DLC: 8  Data: 0x14 0x2B 0x00 0x01 0x04 0x00 0x13 0x19
[16:35:35.144] Extended ID: 0x03FF1601  DLC: 8  Data: 0x6E 0x50 0x00 0x00 0x00 0x00 0x00 0x00
[16:35:35.154] Extended ID: 0x03FF1602  DLC: 8  Data: 0x01 0x8C 0x71 0x00 0x00 0x00 0x00 0x00
[16:35:35.165] Extended ID: 0x03FF1604  DLC: 8  Data: 0x00 0x00 0x00 0x00 0x00 0x00 0x00 0x00
[16:35:35.175] Extended ID: 0x03FF1000  DLC: 8  Data: 0x00 0x00 0x11 0x22 0x00 0x00 0x00 0x01
[16:35:35.181] Extended ID: 0x02181606  DLC: 8  Data: 0x01 0x00 0x19 0x00 0x01 0x03 0x02 0x00
[16:35:35.189] Extended ID: 0x03FF1001  DLC: 8  Data: 0x00 0x00 0x00 0x00 0x00 0x00 0x00 0x00
[16:35:35.194] Extended ID: 0x03FF1603  DLC: 8  Data: 0x00 0x00 0xCD 0x23 0x00 0x00 0x00 0x00
[16:35:35.206] Extended ID: 0x03FF1605  DLC: 8  Data: 0x01 0x00 0x00 0x00 0x00 0x00 0x00 0x00
[16:35:35.212] Extended ID: 0x05FF4001  DLC: 8  Data: 0x00 0x00 0x00 0x00 0x00 0x00 0x00 0x00
[16:35:35.220] Extended ID: 0x05FF4000  DLC: 8  Data: 0x00 0x00 0x00 0x00 0x00 0x00 0x00 0x00
[16:35:35.225] Extended ID: 0x03121606  DLC: 8  Data: 0x00 0x00 0x00 0x00 0x00 0x00 0x00 0x00
[16:35:35.259] Extended ID: 0x03FF1000  DLC: 8  Data: 0x00 0x00 0x11 0x22 0x00 0x00 0x00 0x01
[16:35:35.270] Extended ID: 0x03FF1001  DLC: 8  Data: 0x00 0x00 0x00 0x00 0x00 0x00 0x00 0x00
[16:35:35.280] Extended ID: 0x03FF1603  DLC: 8  Data: 0x00 0x00 0xCD 0x23 0x00 0x00 0x00 0x00
[16:35:35.290] Extended ID: 0x03FF1605  DLC: 8  Data: 0x01 0x00 0x00 0x00 0x00 0x00 0x00 0x00
[16:35:35.296] Extended ID: 0x05FF4602  DLC: 8  Data: 0xB8 0x0F 0xB6 0x0F 0xB7 0x0F 0xB5 0x0F
[16:35:35.304] Extended ID: 0x03121606  DLC: 8  Data: 0x00 0x00 0x00 0x00 0x00 0x00 0x00 0x00
[16:35:35.309] Extended ID: 0x05FF4603  DLC: 8  Data: 0xB5 0x0F 0xBE 0x0F 0xBD 0x0F 0xBE 0x0F
[16:35:35.318] Extended ID: 0x05FF4604  DLC: 8  Data: 0xC1 0x0F 0xC2 0x0F 0xC3 0x0F 0xC3 0x0F
[16:35:35.323] Extended ID: 0x05FF4605  DLC: 8  Data: 0xC4 0x0F 0x00 0x00 0x00 0x00 0x00 0x00
[16:35:35.343] Extended ID: 0x05FF4610  DLC: 8  Data: 0x00 0x00 0xCC 0x95 0xFF 0xFF 0xFF 0xBE
[16:35:35.351] Extended ID: 0x05FF4606  DLC: 3  Data: 0x11 0x11 0x10
[16:35:35.360] Extended ID: 0x05FF4607  DLC: 3  Data: 0x10 0x13 0x10
[16:35:35.368] Extended ID: 0x03FF1000  DLC: 8  Data: 0x00 0x00 0x11 0x22 0x00 0x00 0x00 0x01
[16:35:35.374] Extended ID: 0x05FF4608  DLC: 4  Data: 0x00 0x19 0x00 0x7C
[16:35:35.379] Extended ID: 0x03FF1001  DLC: 8  Data: 0x00 0x00 0x00 0x00 0x00 0x00 0x00 0x00
[16:35:35.385] Extended ID: 0x05FF4609  DLC: 7  Data: 0x01 0x00 0x03 0x52 0x03 0xD4 0x00
[16:35:35.393] Extended ID: 0x03FF1603  DLC: 8  Data: 0x00 0x00 0xCD 0x23 0x00 0x00 0x00 0x00
[16:35:35.400] Extended ID: 0x03FF1605  DLC: 8  Data: 0x01 0x00 0x00 0x00 0x00 0x00 0x00 0x00
[16:35:35.470] Extended ID: 0x03FF1000  DLC: 8  Data: 0x00 0x00 0x11 0x22 0x00 0x00 0x00 0x01
[16:35:35.480] Extended ID: 0x03FF1001  DLC: 8  Data: 0x00 0x00 0x00 0x00 0x00 0x00 0x00 0x00
[16:35:35.490] Extended ID: 0x03FF1603  DLC: 8  Data: 0x00 0x00 0xCD 0x23 0x00 0x00 0x00 0x00
[16:35:35.501] Extended ID: 0x03FF1605  DLC: 8  Data: 0x01 0x00 0x00 0x00 0x00 0x00 0x00 0x00
[16:35:35.531] Extended ID: 0x05FF4400  DLC: 4  Data: 0x00 0x00 0x00 0x09
[16:35:35.574] Extended ID: 0x03FF1000  DLC: 8  Data: 0x00 0x00 0x11 0x22 0x00 0x00 0x00 0x01
[16:35:35.582] Extended ID: 0x05FF4600  DLC: 6  Data: 0x0D 0x03 0x00 0x93 0x03 0x03
[16:35:35.588] Extended ID: 0x03FF1001  DLC: 8  Data: 0x00 0x00 0x00 0x00 0x00 0x00 0x00 0x00
[16:35:35.596] Extended ID: 0x03FF1603  DLC: 8  Data: 0x00 0x00 0xCD 0x23 0x00 0x00 0x00 0x00
[16:35:35.605] Extended ID: 0x05FF4610  DLC: 8  Data: 0x00 0x00 0xCC 0x95 0xFF 0xFF 0xFF 0xBE
[16:35:35.610] Extended ID: 0x03FF1605  DLC: 8  Data: 0x01 0x00 0x00 0x00 0x00 0x00 0x00 0x00
[16:35:35.632] Extended ID: 0x05FF4601  DLC: 6  Data: 0x00 0xDC 0x00 0x00 0x00 0x00
[16:35:35.679] Extended ID: 0x03FF1000  DLC: 8  Data: 0x00 0x00 0x11 0x22 0x00 0x00 0x00 0x01
[16:35:35.689] Extended ID: 0x03FF1001  DLC: 8  Data: 0x00 0x00 0x00 0x00 0x00 0x00 0x00 0x00
[16:35:35.695] Extended ID: 0x02191602  DLC: 8  Data: 0x00 0x00 0x00 0x00 0x00 0x00 0x00 0x00
[16:35:35.703] Extended ID: 0x03FF1603  DLC: 8  Data: 0x00 0x00 0xCD 0x23 0x00 0x00 0x00 0x00
[16:35:35.709] Extended ID: 0x03FF1605  DLC: 8  Data: 0x01 0x00 0x00 0x00 0x00 0x00 0x00 0x00
[16:35:35.784] Extended ID: 0x03FF1000  DLC: 8  Data: 0x00 0x00 0x11 0x22 0x00 0x00 0x00 0x01
[16:35:35.795] Extended ID: 0x03FF1001  DLC: 8  Data: 0x00 0x00 0x00 0x00 0x00 0x00 0x00 0x00
[16:35:35.805] Extended ID: 0x03FF1603  DLC: 8  Data: 0x00 0x00 0xCD 0x23 0x00 0x00 0x00 0x00
[16:35:35.816] Extended ID: 0x03FF1605  DLC: 8  Data: 0x01 0x00 0x00 0x00 0x00 0x00 0x00 0x00
[16:35:35.889] Extended ID: 0x03FF1000  DLC: 8  Data: 0x00 0x00 0x11 0x22 0x00 0x00 0x00 0x01
[16:35:35.894] Extended ID: 0x05FF4610  DLC: 8  Data: 0x00 0x00 0xCC 0x95 0xFF 0xFF 0xFF 0xB9
[16:35:35.903] Extended ID: 0x03FF1001  DLC: 8  Data: 0x00 0x00 0x00 0x00 0x00 0x00 0x00 0x00
[16:35:35.908] Extended ID: 0x03FF1603  DLC: 8  Data: 0x00 0x00 0xCD 0x23 0x00 0x00 0x00 0x00
[16:35:35.921] Extended ID: 0x03FF1605  DLC: 8  Data: 0x01 0x00 0x00 0x00 0x00 0x00 0x00 0x00
[16:35:35.994] Extended ID: 0x03FF1000  DLC: 8  Data: 0x00 0x00 0x11 0x22 0x00 0x00 0x00 0x01
[16:35:36.005] Extended ID: 0x03FF1001  DLC: 8  Data: 0x00 0x00 0x00 0x00 0x00 0x00 0x00 0x00
[16:35:36.015] Extended ID: 0x03FF1603  DLC: 8  Data: 0x00 0x00 0xCD 0x23 0x00 0x00 0x00 0x00
[16:35:36.026] Extended ID: 0x03FF1605  DLC: 8  Data: 0x01 0x00 0x00 0x00 0x00 0x00 0x00 0x00
[16:35:36.099] Extended ID: 0x03FF1000  DLC: 8  Data: 0x00 0x00 0x11 0x22 0x00 0x00 0x00 0x01
[16:35:36.110] Extended ID: 0x03FF1001  DLC: 8  Data: 0x00 0x00 0x00 0x00 0x00 0x00 0x00 0x00
[16:35:36.120] Extended ID: 0x03FF1603  DLC: 8  Data: 0x00 0x00 0xCD 0x23 0x00 0x00 0x00 0x00
[16:35:36.131] Extended ID: 0x03FF1605  DLC: 8  Data: 0x01 0x00 0x00 0x00 0x00 0x00 0x00 0x00
[16:35:36.141] Extended ID: 0x03FF1600  DLC: 8  Data: 0x14 0x2B 0x00 0x01 0x04 0x00 0x13 0x19
[16:35:36.151] Extended ID: 0x03FF1601  DLC: 8  Data: 0x6E 0x50 0x00 0x00 0x00 0x00 0x00 0x00
[16:35:36.157] Extended ID: 0x05FF4610  DLC: 8  Data: 0x00 0x00 0xCC 0x95 0xFF 0xFF 0xFF 0xB9
[16:35:36.165] Extended ID: 0x03FF1602  DLC: 8  Data: 0x01 0x8C 0x71 0x00 0x00 0x00 0x00 0x00
[16:35:36.171] Extended ID: 0x03FF1604  DLC: 8  Data: 0x00 0x00 0x00 0x00 0x00 0x00 0x00 0x00
[16:35:36.204] Extended ID: 0x03FF1000  DLC: 8  Data: 0x00 0x00 0x11 0x22 0x00 0x00 0x00 0x01
[16:35:36.215] Extended ID: 0x03FF1001  DLC: 8  Data: 0x00 0x00 0x00 0x00 0x00 0x00 0x00 0x00
[16:35:36.225] Extended ID: 0x03FF1603  DLC: 8  Data: 0x00 0x00 0xCD 0x23 0x00 0x00 0x00 0x00
[16:35:36.236] Extended ID: 0x03FF1605  DLC: 8  Data: 0x01 0x00 0x00 0x00 0x00 0x00 0x00 0x00
[16:35:36.241] Extended ID: 0x05FF4001  DLC: 8  Data: 0x00 0x00 0x00 0x00 0x00 0x00 0x00 0x00
[16:35:36.249] Extended ID: 0x05FF4000  DLC: 8  Data: 0x00 0x00 0x00 0x00 0x00 0x00 0x00 0x00
[16:35:36.309] Extended ID: 0x03FF1000  DLC: 8  Data: 0x00 0x00 0x11 0x22 0x00 0x00 0x00 0x01
[16:35:36.319] Extended ID: 0x03FF1001  DLC: 8  Data: 0x00 0x00 0x00 0x00 0x00 0x00 0x00 0x00
[16:35:36.325] Extended ID: 0x05FF4602  DLC: 8  Data: 0xB8 0x0F 0xB6 0x0F 0xB7 0x0F 0xB5 0x0F
[16:35:36.333] Extended ID: 0x03FF1603  DLC: 8  Data: 0x00 0x00 0xCD 0x23 0x00 0x00 0x00 0x00
[16:35:36.338] Extended ID: 0x05FF4603  DLC: 8  Data: 0xB5 0x0F 0xBE 0x0F 0xBD 0x0F 0xBE 0x0F
[16:35:36.346] Extended ID: 0x03FF1605  DLC: 8  Data: 0x01 0x00 0x00 0x00 0x00 0x00 0x00 0x00
[16:35:36.352] Extended ID: 0x05FF4604  DLC: 8  Data: 0xC1 0x0F 0xC2 0x0F 0xC3 0x0F 0xC3 0x0F
[16:35:36.361] Extended ID: 0x05FF4605  DLC: 8  Data: 0xC4 0x0F 0x00 0x00 0x00 0x00 0x00 0x00
[16:35:36.379] Extended ID: 0x05FF4606  DLC: 3  Data: 0x11 0x11 0x10
[16:35:36.389] Extended ID: 0x05FF4607  DLC: 3  Data: 0x10 0x13 0x10
[16:35:36.399] Extended ID: 0x05FF4608  DLC: 4  Data: 0x00 0x19 0x00 0x7C
[16:35:36.411] Extended ID: 0x05FF4609  DLC: 7  Data: 0x01 0x00 0x03 0x52 0x03 0xD4 0x00
[16:35:36.416] Extended ID: 0x03FF1000  DLC: 8  Data: 0x00 0x00 0x11 0x22 0x00 0x00 0x00 0x01
[16:35:36.424] Extended ID: 0x05FF4610  DLC: 8  Data: 0x00 0x00 0xCC 0x95 0xFF 0xFF 0xFF 0xB9
[16:35:36.430] Extended ID: 0x03FF1001  DLC: 8  Data: 0x00 0x00 0x00 0x00 0x00 0x00 0x00 0x00
[16:35:36.439] Extended ID: 0x03FF1603  DLC: 8  Data: 0x00 0x00 0xCD 0x23 0x00 0x00 0x00 0x00
[16:35:36.446] Extended ID: 0x03FF1605  DLC: 8  Data: 0x01 0x00 0x00 0x00 0x00 0x00 0x00 0x00
[16:35:36.519] Extended ID: 0x03FF1000  DLC: 8  Data: 0x00 0x00 0x11 0x22 0x00 0x00 0x00 0x01
[16:35:36.530] Extended ID: 0x03FF1001  DLC: 8  Data: 0x00 0x00 0x00 0x00 0x00 0x00 0x00 0x00
[16:35:36.540] Extended ID: 0x03FF1603  DLC: 8  Data: 0x00 0x00 0xCD 0x23 0x00 0x00 0x00 0x00
[16:35:36.551] Extended ID: 0x03FF1605  DLC: 8  Data: 0x01 0x00 0x00 0x00 0x00 0x00 0x00 0x00
[16:35:36.624] Extended ID: 0x03FF1000  DLC: 8  Data: 0x00 0x00 0x11 0x22 0x00 0x00 0x00 0x01
[16:35:36.635] Extended ID: 0x03FF1001  DLC: 8  Data: 0x00 0x00 0x00 0x00 0x00 0x00 0x00 0x00
[16:35:36.645] Extended ID: 0x03FF1603  DLC: 8  Data: 0x00 0x00 0xCD 0x23 0x00 0x00 0x00 0x00
[16:35:36.656] Extended ID: 0x03FF1605  DLC: 8  Data: 0x01 0x00 0x00 0x00 0x00 0x00 0x00 0x00
[16:35:36.702] Extended ID: 0x05FF4610  DLC: 8  Data: 0x00 0x00 0xCC 0x95 0xFF 0xFF 0xFF 0xB9
[16:35:36.714] Extended ID: 0x02FF2602  DLC: 8  Data: 0x07 0xFF 0xA6 0x07 0x28 0x50 0x35 0x5B
[16:35:36.719] Extended ID: 0x02294609  DLC: 8  Data: 0x00 0x00 0x00 0x00 0x00 0x00 0x00 0x00
[16:35:36.727] Extended ID: 0x05124609  DLC: 7  Data: 0x03 0x00 0x03 0x52 0x03 0xD4 0x00
[16:35:36.733] Extended ID: 0x03FF1000  DLC: 8  Data: 0x00 0x00 0x11 0x22 0x00 0x00 0x00 0x01
[16:35:36.741] Extended ID: 0x03FF1001  DLC: 8  Data: 0x00 0x00 0x00 0x00 0x00 0x00 0x00 0x00
[16:35:36.750] Extended ID: 0x03FF1603  DLC: 8  Data: 0x00 0x00 0xCD 0x23 0x00 0x00 0x00 0x00
[16:35:36.761] Extended ID: 0x03FF1605  DLC: 8  Data: 0x01 0x00 0x00 0x00 0x00 0x00 0x00 0x00
[16:35:36.834] Extended ID: 0x03FF1000  DLC: 8  Data: 0x00 0x00 0x11 0x22 0x00 0x00 0x00 0x01
[16:35:36.845] Extended ID: 0x03FF1001  DLC: 8  Data: 0x00 0x00 0x00 0x00 0x00 0x00 0x00 0x00
[16:35:36.855] Extended ID: 0x03FF1603  DLC: 8  Data: 0x00 0x00 0xCD 0x23 0x00 0x00 0x00 0x00
[16:35:36.866] Extended ID: 0x03FF1605  DLC: 8  Data: 0x01 0x00 0x00 0x00 0x00 0x00 0x00 0x00
[16:35:36.939] Extended ID: 0x03FF1000  DLC: 8  Data: 0x00 0x00 0x11 0x22 0x00 0x00 0x00 0x01
[16:35:36.950] Extended ID: 0x03FF1001  DLC: 8  Data: 0x00 0x00 0x00 0x00 0x00 0x00 0x00 0x00
[16:35:36.960] Extended ID: 0x03FF1603  DLC: 8  Data: 0x00 0x00 0xCD 0x23 0x00 0x00 0x00 0x00
[16:35:36.965] Extended ID: 0x05FF4610  DLC: 8  Data: 0x00 0x00 0xCC 0x95 0xFF 0xFF 0xFF 0xBE
[16:35:36.974] Extended ID: 0x03FF1605  DLC: 8  Data: 0x01 0x00 0x00 0x00 0x00 0x00 0x00 0x00
[16:35:37.044] Extended ID: 0x03FF1000  DLC: 8  Data: 0x00 0x00 0x11 0x22 0x00 0x00 0x00 0x01
[16:35:37.055] Extended ID: 0x03FF1001  DLC: 8  Data: 0x00 0x00 0x00 0x00 0x00 0x00 0x00 0x00
[16:35:37.065] Extended ID: 0x03FF1603  DLC: 8  Data: 0x00 0x00 0xCD 0x23 0x00 0x00 0x00 0x00
[16:35:37.076] Extended ID: 0x03FF1605  DLC: 8  Data: 0x01 0x00 0x00 0x00 0x00 0x00 0x00 0x00
[16:35:37.149] Extended ID: 0x03FF1000  DLC: 8  Data: 0x00 0x00 0x11 0x22 0x00 0x00 0x00 0x01
[16:35:37.160] Extended ID: 0x03FF1001  DLC: 8  Data: 0x00 0x00 0x00 0x00 0x00 0x00 0x00 0x00
[16:35:37.170] Extended ID: 0x03FF1600  DLC: 8  Data: 0x14 0x2B 0x00 0x01 0x04 0x00 0x13 0x19
[16:35:37.181] Extended ID: 0x03FF1601  DLC: 8  Data: 0x6E 0x50 0x00 0x00 0x00 0x00 0x00 0x00
[16:35:37.191] Extended ID: 0x03FF1602  DLC: 8  Data: 0x01 0x8C 0x71 0x00 0x00 0x00 0x00 0x00
[16:35:37.202] Extended ID: 0x03FF1603  DLC: 8  Data: 0x00 0x00 0xCD 0x23 0x00 0x00 0x00 0x00
[16:35:37.212] Extended ID: 0x03FF1604  DLC: 8  Data: 0x00 0x00 0x00 0x00 0x00 0x00 0x00 0x00
[16:35:37.222] Extended ID: 0x03FF1605  DLC: 8  Data: 0x01 0x00 0x00 0x00 0x00 0x00 0x00 0x00
[16:35:37.228] Extended ID: 0x02FF2602  DLC: 8  Data: 0x07 0xFF 0xA6 0x07 0x28 0x50 0x35 0x5B
[16:35:37.236] Extended ID: 0x02294609  DLC: 8  Data: 0x00 0x00 0x00 0x00 0x00 0x00 0x00 0x00
[16:35:37.241] Extended ID: 0x05124609  DLC: 7  Data: 0x03 0x00 0x03 0x52 0x03 0xD4 0x00
[16:35:37.249] Extended ID: 0x03FF1400  DLC: 8  Data: 0x00 0x00 0x00 0x15 0x00 0x00 0x00 0x00
[16:35:37.255] Extended ID: 0x05FF4610  DLC: 8  Data: 0x00 0x00 0xCC 0x95 0xFF 0xFF 0xFF 0xBE
[16:35:37.263] Extended ID: 0x03FF1000  DLC: 8  Data: 0x00 0x00 0x11 0x22 0x00 0x00 0x00 0x01
[16:35:37.268] Extended ID: 0x03FF1001  DLC: 8  Data: 0x00 0x00 0x00 0x00 0x00 0x00 0x00 0x00
[16:35:37.277] Extended ID: 0x05FF4001  DLC: 8  Data: 0x00 0x00 0x00 0x00 0x00 0x00 0x00 0x00
[16:35:37.282] Extended ID: 0x03FF1603  DLC: 8  Data: 0x00 0x00 0xCD 0x23 0x00 0x00 0x00 0x00
[16:35:37.290] Extended ID: 0x05FF4000  DLC: 8  Data: 0x00 0x00 0x00 0x00 0x00 0x00 0x00 0x00
[16:35:37.297] Extended ID: 0x03FF1605  DLC: 8  Data: 0x01 0x00 0x00 0x00 0x00 0x00 0x00 0x00
[16:35:37.335] Extended ID: 0x02203606  DLC: 8  Data: 0x01 0x01 0x00 0x01 0x00 0x01 0x00 0x00
[16:35:37.343] Extended ID: 0x04FF3400  DLC: 8  Data: 0x00 0x00 0x00 0x27 0x00 0x00 0x00 0x00
[16:35:37.349] Extended ID: 0x02181606  DLC: 8  Data: 0x00 0x00 0x00 0x00 0x00 0x03 0x02 0x00
[16:35:37.357] Extended ID: 0x05FF4602  DLC: 8  Data: 0xB8 0x0F 0xB6 0x0F 0xB7 0x0F 0xB5 0x0F
[16:35:37.363] Extended ID: 0x04FF3602  DLC: 8  Data: 0x00 0x00 0x00 0x00 0x00 0x00 0x00 0x00
[16:35:37.371] Extended ID: 0x03FF1605  DLC: 8  Data: 0x00 0x00 0x00 0x00 0x00 0x00 0x00 0x00
[16:35:37.376] Extended ID: 0x02203606  DLC: 8  Data: 0x02 0x00 0x00 0x00 0x00 0x00 0x00 0x00
[16:35:37.399] Extended ID: 0x04123606  DLC: 8  Data: 0x00 0x00 0x01 0x00 0x00 0x00 0x00 0x00
[16:35:37.404] Extended ID: 0x02181608  DLC: 8  Data: 0x05 0x00 0x00 0x00 0x01 0x00 0x00 0x00
[16:35:37.436] Extended ID: 0x02181609  DLC: 8  Data: 0x00 0x00 0x00 0x00 0x00 0x00 0x00 0x00
[16:35:37.465] Extended ID: 0x02488600  DLC: 8  Data: 0x00 0x00 0x00 0x00 0x00 0x00 0x00 0x00
[16:35:37.511] Extended ID: 0x02294500  DLC: 0  Data:
[16:35:37.514] Extended ID: 0x05124500  DLC: 2  Data: 0x01 0x00
[16:35:37.522] Extended ID: 0x1FF8B028  DLC: 8  Data: 0x00 0x00 0x00 0x00 0x00 0x00 0x00 0x00
[16:35:37.529] Extended ID: 0x03FF1605  DLC: 8  Data: 0x00 0x00 0x00 0x00 0x00 0x00 0x00 0x00
[16:35:37.538] Extended ID: 0x03121606  DLC: 8  Data: 0x01 0x00 0x00 0x00 0x00 0x00 0x00 0x00
[16:35:37.547] Extended ID: 0x02FF2605  DLC: 8  Data: 0x00 0x00 0x05 0x01 0x07 0x06 0x05 0x01
[16:35:37.575] Extended ID: 0x02FF2604  DLC: 8  Data: 0x00 0x00 0x00 0x00 0x00 0x00 0x00 0x00
[16:35:37.605] Extended ID: 0x02FF2704  DLC: 8  Data: 0x02 0x00 0x00 0x00 0x00 0x00 0x00 0x00
[16:35:37.635] Extended ID: 0x0260B606  DLC: 8  Data: 0x01 0x00 0x00 0x00 0x00 0x00 0x00 0x00
[16:35:37.663] Extended ID: 0x02203607  DLC: 5  Data: 0x00 0x00 0x00 0x03 0x00
[16:35:37.695] Extended ID: 0x02F82400  DLC: 8  Data: 0xF8 0x00 0x00 0x00 0x00 0x00 0x00 0x00
[16:35:37.725] Extended ID: 0x02FF2602  DLC: 8  Data: 0x7E 0x97 0xA3 0x67 0x3C 0x88 0x42 0x2F
[16:35:37.755] Extended ID: 0x02181606  DLC: 8  Data: 0x01 0x00 0x19 0x00 0x01 0x03 0x02 0x00
[16:35:37.785] Extended ID: 0x02203606  DLC: 8  Data: 0x01 0x00 0x00 0x01 0x00 0x01 0x00 0x00
[16:35:37.815] Extended ID: 0x02181608  DLC: 8  Data: 0x05 0x00 0x00 0x00 0x01 0x00 0x00 0x00
[16:35:37.836] Extended ID: 0x03FF1000  DLC: 8  Data: 0x00 0x00 0x11 0x22 0x00 0x00 0x00 0x01
[16:35:37.845] Extended ID: 0x02181609  DLC: 8  Data: 0x00 0x00 0x00 0x00 0x00 0x00 0x00 0x00
[16:35:37.851] Extended ID: 0x03FF1001  DLC: 8  Data: 0x00 0x00 0x00 0x00 0x00 0x00 0x00 0x00
[16:35:37.859] Extended ID: 0x04FF3602  DLC: 8  Data: 0x00 0x00 0x00 0x00 0x00 0x00 0x00 0x00
[16:35:37.864] Extended ID: 0x03FF1603  DLC: 8  Data: 0x00 0x00 0xCD 0x23 0x00 0x00 0x00 0x00
[16:35:37.872] Extended ID: 0x03FF1605  DLC: 8  Data: 0x01 0x00 0x00 0x00 0x00 0x00 0x00 0x00
[16:35:37.878] Extended ID: 0x05FF4610  DLC: 8  Data: 0x00 0x00 0xCC 0x92 0xFF 0xFF 0xFF 0xA8
[16:35:37.886] Extended ID: 0x02488600  DLC: 8  Data: 0x00 0x00 0x00 0x00 0x00 0x00 0x00 0x00
[16:35:37.892] Extended ID: 0x03121606  DLC: 8  Data: 0x01 0x00 0x00 0x00 0x00 0x00 0x00 0x00
[16:35:37.901] Extended ID: 0x02294501  DLC: 0  Data:
[16:35:37.906] Extended ID: 0x05124501  DLC: 2  Data: 0x01 0x09
[16:35:37.934] Extended ID: 0x02FF2605  DLC: 8  Data: 0x00 0x00 0x05 0x01 0x07 0x06 0x05 0x03
[16:35:37.940] Extended ID: 0x03FF1000  DLC: 8  Data: 0x00 0x00 0x11 0x22 0x00 0x00 0x00 0x01
[16:35:37.952] Extended ID: 0x03FF1001  DLC: 8  Data: 0x00 0x00 0x00 0x00 0x00 0x00 0x00 0x00
[16:35:37.962] Extended ID: 0x03FF1603  DLC: 8  Data: 0x00 0x00 0xCD 0x23 0x00 0x00 0x00 0x00
[16:35:37.972] Extended ID: 0x03FF1605  DLC: 8  Data: 0x01 0x00 0x00 0x00 0x00 0x00 0x00 0x00
[16:35:37.997] Extended ID: 0x05FF4001  DLC: 8  Data: 0x00 0x00 0x00 0x00 0x00 0x00 0x00 0x00
[16:35:38.003] Extended ID: 0x05FF4000  DLC: 8  Data: 0x00 0x00 0x00 0x00 0x00 0x00 0x00 0x00
[16:35:38.020] Extended ID: 0x02FF2604  DLC: 8  Data: 0x00 0x00 0x00 0x00 0x00 0x00 0x00 0x00
[16:35:38.046] Extended ID: 0x03FF1000  DLC: 8  Data: 0x00 0x00 0x11 0x22 0x00 0x00 0x00 0x01
[16:35:38.057] Extended ID: 0x03FF1001  DLC: 8  Data: 0x00 0x00 0x00 0x00 0x00 0x00 0x00 0x00
[16:35:38.065] Extended ID: 0x02FF2704  DLC: 8  Data: 0x02 0x00 0x00 0x00 0x00 0x00 0x00 0x00
[16:35:38.071] Extended ID: 0x03FF1603  DLC: 8  Data: 0x00 0x00 0xCD 0x23 0x00 0x00 0x00 0x00
[16:35:38.079] Extended ID: 0x03FF1605  DLC: 8  Data: 0x01 0x00 0x00 0x00 0x00 0x00 0x00 0x00
[16:35:38.084] Extended ID: 0x05FF4602  DLC: 8  Data: 0xB8 0x0F 0xB6 0x0F 0xB7 0x0F 0xB5 0x0F
[16:35:38.093] Extended ID: 0x05FF4603  DLC: 8  Data: 0xB5 0x0F 0xBD 0x0F 0xBD 0x0F 0xBE 0x0F
[16:35:38.098] Extended ID: 0x0260B606  DLC: 8  Data: 0x01 0x00 0x00 0x00 0x00 0x00 0x00 0x00
[16:35:38.106] Extended ID: 0x05FF4604  DLC: 8  Data: 0xC0 0x0F 0xC1 0x0F 0xC3 0x0F 0xC3 0x0F
[16:35:38.112] Extended ID: 0x05FF4605  DLC: 8  Data: 0xC4 0x0F 0x00 0x00 0x00 0x00 0x00 0x00
[16:35:38.127] Extended ID: 0x02203607  DLC: 5  Data: 0x00 0x00 0x00 0x03 0x00
[16:35:38.132] Extended ID: 0x05FF4610  DLC: 8  Data: 0x00 0x00 0xCC 0x92 0xFF 0xFF 0xFF 0xA8
[16:35:38.138] Extended ID: 0x05FF4606  DLC: 3  Data: 0x11 0x11 0x10
[16:35:38.146] Extended ID: 0x05FF4607  DLC: 3  Data: 0x10 0x13 0x10
[16:35:38.155] Extended ID: 0x03FF1000  DLC: 8  Data: 0x00 0x00 0x11 0x22 0x00 0x00 0x00 0x01
[16:35:38.160] Extended ID: 0x02181606  DLC: 8  Data: 0x01 0x00 0x19 0x00 0x01 0x03 0x02 0x00
[16:35:38.166] Extended ID: 0x05FF4608  DLC: 4  Data: 0x00 0x19 0x00 0x7C
[16:35:38.174] Extended ID: 0x03FF1001  DLC: 8  Data: 0x00 0x00 0x00 0x00 0x00 0x00 0x00 0x00
[16:35:38.179] Extended ID: 0x05FF4609  DLC: 7  Data: 0x03 0x00 0x03 0x52 0x03 0xD4 0x00
[16:35:38.185] Extended ID: 0x03FF1603  DLC: 8  Data: 0x00 0x00 0xCD 0x23 0x00 0x00 0x00 0x00
[16:35:38.193] Extended ID: 0x03FF1605  DLC: 8  Data: 0x01 0x00 0x00 0x00 0x00 0x00 0x00 0x00
[16:35:38.198] Extended ID: 0x02203606  DLC: 8  Data: 0x01 0x01 0x00 0x01 0x00 0x01 0x00 0x00
[16:35:38.207] Extended ID: 0x03FF1600  DLC: 8  Data: 0x14 0x2B 0x00 0x01 0x04 0x00 0x13 0x19
[16:35:38.212] Extended ID: 0x03FF1601  DLC: 8  Data: 0x6E 0x50 0x00 0x00 0x00 0x00 0x00 0x00
[16:35:38.220] Extended ID: 0x03FF1602  DLC: 8  Data: 0x01 0x8C 0x71 0x00 0x00 0x00 0x00 0x00
[16:35:38.226] Extended ID: 0x02181608  DLC: 8  Data: 0x05 0x00 0x00 0x00 0x01 0x00 0x00 0x00
[16:35:38.234] Extended ID: 0x03FF1604  DLC: 8  Data: 0x00 0x00 0x00 0x00 0x00 0x00 0x00 0x00
[16:35:38.249] Extended ID: 0x02181609  DLC: 8  Data: 0x00 0x00 0x00 0x00 0x00 0x00 0x00 0x00
[16:35:38.254] Extended ID: 0x03FF1000  DLC: 8  Data: 0x00 0x00 0x11 0x22 0x00 0x00 0x00 0x01
[16:35:38.266] Extended ID: 0x03FF1001  DLC: 8  Data: 0x00 0x00 0x00 0x00 0x00 0x00 0x00 0x00
[16:35:38.276] Extended ID: 0x03FF1603  DLC: 8  Data: 0x00 0x00 0xCD 0x23 0x00 0x00 0x00 0x00
[16:35:38.282] Extended ID: 0x02488600  DLC: 8  Data: 0x00 0x00 0x00 0x00 0x00 0x00 0x00 0x00
[16:35:38.291] Extended ID: 0x03FF1605  DLC: 8  Data: 0x01 0x00 0x00 0x00 0x00 0x00 0x00 0x00
[16:35:38.296] Extended ID: 0x03121606  DLC: 8  Data: 0x00 0x00 0x00 0x00 0x00 0x00 0x00 0x00
[16:35:38.302] Extended ID: 0x02191500  DLC: 0  Data:
[16:35:38.318] Extended ID: 0x03FF1500  DLC: 8  Data: 0x00 0x00 0x00 0xCF 0x00 0x00 0x00 0x00
[16:35:38.324] Extended ID: 0x05FF4400  DLC: 4  Data: 0x00 0x00 0x00 0x0A
[16:35:38.351] Extended ID: 0x04FF3602  DLC: 8  Data: 0x00 0x00 0x00 0x00 0x00 0x00 0x00 0x00
[16:35:38.360] Extended ID: 0x03FF1000  DLC: 8  Data: 0x00 0x00 0x11 0x22 0x00 0x00 0x00 0x01
[16:35:38.366] Extended ID: 0x02FF2605  DLC: 8  Data: 0x00 0x00 0x05 0x01 0x07 0x06 0x05 0x04
[16:35:38.374] Extended ID: 0x05FF4600  DLC: 6  Data: 0x0D 0x03 0x00 0x93 0x03 0x03
[16:35:38.380] Extended ID: 0x03FF1001  DLC: 8  Data: 0x00 0x00 0x00 0x00 0x00 0x00 0x00 0x00
[16:35:38.388] Extended ID: 0x03FF1603  DLC: 8  Data: 0x00 0x00 0xCD 0x23 0x00 0x00 0x00 0x00
[16:35:38.393] Extended ID: 0x05FF4610  DLC: 8  Data: 0x00 0x00 0xCC 0x92 0xFF 0xFF 0xFF 0xA8
[16:35:38.401] Extended ID: 0x03FF1605  DLC: 8  Data: 0x01 0x00 0x00 0x00 0x00 0x00 0x00 0x00
[16:35:38.408] Extended ID: 0x02FF2604  DLC: 8  Data: 0x00 0x00 0x00 0x00 0x00 0x00 0x00 0x00
[16:35:38.419] Extended ID: 0x05FF4601  DLC: 6  Data: 0x00 0xDC 0x00 0x00 0x00 0x00
[16:35:38.428] Extended ID: 0x02FF2704  DLC: 8  Data: 0x02 0x00 0x00 0x00 0x00 0x00 0x00 0x00
[16:35:38.459] Extended ID: 0x0260B606  DLC: 8  Data: 0x01 0x00 0x00 0x00 0x00 0x00 0x00 0x00
[16:35:38.464] Extended ID: 0x03FF1000  DLC: 8  Data: 0x00 0x00 0x11 0x22 0x00 0x00 0x00 0x01
[16:35:38.476] Extended ID: 0x03FF1001  DLC: 8  Data: 0x00 0x00 0x00 0x00 0x00 0x00 0x00 0x00
[16:35:38.486] Extended ID: 0x03FF1603  DLC: 8  Data: 0x00 0x00 0xCD 0x23 0x00 0x00 0x00 0x00
[16:35:38.492] Extended ID: 0x02203607  DLC: 5  Data: 0x00 0x00 0x00 0x03 0x00
[16:35:38.499] Extended ID: 0x03FF1605  DLC: 8  Data: 0x01 0x00 0x00 0x00 0x00 0x00 0x00 0x00
[16:35:38.572] Extended ID: 0x03FF1000  DLC: 8  Data: 0x00 0x00 0x11 0x22 0x00 0x00 0x00 0x01
[16:35:38.581] Extended ID: 0x03FF1001  DLC: 8  Data: 0x00 0x00 0x00 0x00 0x00 0x00 0x00 0x00
[16:35:38.592] Extended ID: 0x03FF1603  DLC: 8  Data: 0x00 0x00 0xCD 0x23 0x00 0x00 0x00 0x00
[16:35:38.603] Extended ID: 0x03FF1605  DLC: 8  Data: 0x01 0x00 0x00 0x00 0x00 0x00 0x00 0x00
[16:35:38.661] Extended ID: 0x05FF4610  DLC: 8  Data: 0x00 0x00 0xCC 0x92 0xFF 0xFF 0xFF 0xA8
[16:35:38.676] Extended ID: 0x03FF1000  DLC: 8  Data: 0x00 0x00 0x11 0x22 0x00 0x00 0x00 0x01
[16:35:38.687] Extended ID: 0x03FF1001  DLC: 8  Data: 0x00 0x00 0x00 0x00 0x00 0x00 0x00 0x00
[16:35:38.697] Extended ID: 0x03FF1603  DLC: 8  Data: 0x00 0x00 0xCD 0x23 0x00 0x00 0x00 0x00
[16:35:38.708] Extended ID: 0x03FF1605  DLC: 8  Data: 0x01 0x00 0x00 0x00 0x00 0x00 0x00 0x00
[16:35:38.781] Extended ID: 0x03FF1000  DLC: 8  Data: 0x00 0x00 0x11 0x22 0x00 0x00 0x00 0x01
[16:35:38.792] Extended ID: 0x03FF1001  DLC: 8  Data: 0x00 0x00 0x00 0x00 0x00 0x00 0x00 0x00
[16:35:38.802] Extended ID: 0x03FF1603  DLC: 8  Data: 0x00 0x00 0xCD 0x23 0x00 0x00 0x00 0x00
[16:35:38.813] Extended ID: 0x03FF1605  DLC: 8  Data: 0x01 0x00 0x00 0x00 0x00 0x00 0x00 0x00
[16:35:38.854] Extended ID: 0x04FF3602  DLC: 8  Data: 0x00 0x00 0x00 0x00 0x00 0x00 0x00 0x00
[16:35:38.886] Extended ID: 0x03FF1000  DLC: 8  Data: 0x00 0x00 0x11 0x22 0x00 0x00 0x00 0x01
[16:35:38.896] Extended ID: 0x03FF1001  DLC: 8  Data: 0x00 0x00 0x00 0x00 0x00 0x00 0x00 0x00
[16:35:38.901] Extended ID: 0x02181606  DLC: 8  Data: 0x01 0x00 0x19 0x00 0x01 0x03 0x02 0x00
[16:35:38.910] Extended ID: 0x03FF1603  DLC: 8  Data: 0x00 0x00 0xCD 0x23 0x00 0x00 0x00 0x00
[16:35:38.916] Extended ID: 0x03FF1605  DLC: 8  Data: 0x01 0x00 0x00 0x00 0x00 0x00 0x00 0x00
[16:35:38.927] Extended ID: 0x02203606  DLC: 8  Data: 0x01 0x01 0x00 0x01 0x00 0x01 0x00 0x00
[16:35:38.940] Extended ID: 0x05FF4610  DLC: 8  Data: 0x00 0x00 0xCC 0x8D 0xFF 0xFF 0xFF 0x92
[16:35:38.959] Extended ID: 0x02181608  DLC: 8  Data: 0x05 0x00 0x00 0x00 0x01 0x00 0x00 0x00
[16:35:38.988] Extended ID: 0x02181609  DLC: 8  Data: 0x00 0x00 0x00 0x00 0x00 0x00 0x00 0x00
[16:35:38.993] Extended ID: 0x03FF1000  DLC: 8  Data: 0x00 0x00 0x11 0x22 0x00 0x00 0x00 0x01
[16:35:39.002] Extended ID: 0x03FF1001  DLC: 8  Data: 0x00 0x00 0x00 0x00 0x00 0x00 0x00 0x00
[16:35:39.012] Extended ID: 0x03FF1603  DLC: 8  Data: 0x00 0x00 0xCD 0x23 0x00 0x00 0x00 0x00
[16:35:39.022] Extended ID: 0x03FF1605  DLC: 8  Data: 0x01 0x00 0x00 0x00 0x00 0x00 0x00 0x00
[16:35:39.027] Extended ID: 0x05FF4001  DLC: 8  Data: 0x00 0x00 0x00 0x00 0x00 0x00 0x00 0x00
[16:35:39.036] Extended ID: 0x05FF4000  DLC: 8  Data: 0x00 0x00 0x00 0x00 0x00 0x00 0x00 0x00
[16:35:39.041] Extended ID: 0x03121606  DLC: 8  Data: 0x00 0x00 0x00 0x00 0x00 0x00 0x00 0x00
[16:35:39.050] Extended ID: 0x02488600  DLC: 8  Data: 0x00 0x00 0x00 0x00 0x00 0x00 0x00 0x00
[16:35:39.064] Extended ID: 0x02191501  DLC: 0  Data:
[16:35:39.085] Extended ID: 0x03FF1501  DLC: 8  Data: 0x00 0x00 0x00 0x36 0x00 0x00 0x00 0x00
[16:35:39.096] Extended ID: 0x03FF1000  DLC: 8  Data: 0x00 0x00 0x11 0x22 0x00 0x00 0x00 0x01
[16:35:39.107] Extended ID: 0x03FF1001  DLC: 8  Data: 0x00 0x00 0x00 0x00 0x00 0x00 0x00 0x00
[16:35:39.111] Extended ID: 0x05FF4602  DLC: 8  Data: 0xB7 0x0F 0xB5 0x0F 0xB7 0x0F 0xB5 0x0F
[16:35:39.120] Extended ID: 0x05FF4603  DLC: 8  Data: 0xB5 0x0F 0xBD 0x0F 0xBD 0x0F 0xBE 0x0F
[16:35:39.125] Extended ID: 0x03FF1603  DLC: 8  Data: 0x00 0x00 0xCD 0x23 0x00 0x00 0x00 0x00
[16:35:39.133] Extended ID: 0x05FF4604  DLC: 8  Data: 0xBF 0x0F 0xC1 0x0F 0xC3 0x0F 0xC2 0x0F
[16:35:39.139] Extended ID: 0x03FF1605  DLC: 8  Data: 0x01 0x00 0x00 0x00 0x00 0x00 0x00 0x00
[16:35:39.148] Extended ID: 0x05FF4605  DLC: 8  Data: 0xC3 0x0F 0x00 0x00 0x00 0x00 0x00 0x00
[16:35:39.163] Extended ID: 0x05FF4606  DLC: 3  Data: 0x11 0x11 0x10
[16:35:39.171] Extended ID: 0x03FF1600  DLC: 8  Data: 0x14 0x2B 0x00 0x01 0x04 0x00 0x13 0x19
[16:35:39.174] Extended ID: 0x05FF4607  DLC: 3  Data: 0x10 0x13 0x10
[16:35:39.182] Extended ID: 0x03FF1601  DLC: 8  Data: 0x6E 0x50 0x00 0x00 0x00 0x00 0x00 0x00
[16:35:39.188] Extended ID: 0x05FF4608  DLC: 4  Data: 0x00 0x19 0x00 0x7C
[16:35:39.193] Extended ID: 0x03FF1602  DLC: 8  Data: 0x01 0x8C 0x71 0x00 0x00 0x00 0x00 0x00
[16:35:39.201] Extended ID: 0x05FF4609  DLC: 7  Data: 0x03 0x00 0x03 0x52 0x03 0xD4 0x00
[16:35:39.207] Extended ID: 0x05FF4610  DLC: 8  Data: 0x00 0x00 0xCC 0x8D 0xFF 0xFF 0xFF 0x92
[16:35:39.215] Extended ID: 0x03FF1604  DLC: 8  Data: 0x00 0x00 0x00 0x00 0x00 0x00 0x00 0x00
[16:35:39.220] Extended ID: 0x03FF1000  DLC: 8  Data: 0x00 0x00 0x11 0x22 0x00 0x00 0x00 0x01
[16:35:39.228] Extended ID: 0x03FF1001  DLC: 8  Data: 0x00 0x00 0x00 0x00 0x00 0x00 0x00 0x00
[16:35:39.235] Extended ID: 0x03FF1603  DLC: 8  Data: 0x00 0x00 0xCD 0x23 0x00 0x00 0x00 0x00
[16:35:39.243] Extended ID: 0x03FF1605  DLC: 8  Data: 0x01 0x00 0x00 0x00 0x00 0x00 0x00 0x00
[16:35:39.306] Extended ID: 0x03FF1000  DLC: 8  Data: 0x00 0x00 0x11 0x22 0x00 0x00 0x00 0x01
[16:35:39.316] Extended ID: 0x03FF1001  DLC: 8  Data: 0x00 0x00 0x00 0x00 0x00 0x00 0x00 0x00
[16:35:39.327] Extended ID: 0x03FF1603  DLC: 8  Data: 0x00 0x00 0xCD 0x23 0x00 0x00 0x00 0x00
[16:35:39.338] Extended ID: 0x03FF1605  DLC: 8  Data: 0x01 0x00 0x00 0x00 0x00 0x00 0x00 0x00
[16:35:39.358] Extended ID: 0x04FF3602  DLC: 8  Data: 0x00 0x00 0x00 0x00 0x00 0x00 0x00 0x00
[16:35:39.376] Extended ID: 0x02FF2605  DLC: 8  Data: 0x00 0x00 0x05 0x01 0x07 0x06 0x05 0x05
[16:35:39.406] Extended ID: 0x02FF2604  DLC: 8  Data: 0x00 0x00 0x00 0x00 0x00 0x00 0x00 0x00
[16:35:39.411] Extended ID: 0x03FF1000  DLC: 8  Data: 0x00 0x00 0x11 0x22 0x00 0x00 0x00 0x01
[16:35:39.421] Extended ID: 0x03FF1001  DLC: 8  Data: 0x00 0x00 0x00 0x00 0x00 0x00 0x00 0x00
[16:35:39.431] Extended ID: 0x03FF1603  DLC: 8  Data: 0x00 0x00 0xCD 0x23 0x00 0x00 0x00 0x00
[16:35:39.437] Extended ID: 0x02FF2704  DLC: 8  Data: 0x02 0x00 0x00 0x00 0x00 0x00 0x00 0x00
[16:35:39.446] Extended ID: 0x03FF1605  DLC: 8  Data: 0x01 0x00 0x00 0x00 0x00 0x00 0x00 0x00
[16:35:39.461] Extended ID: 0x05FF4610  DLC: 8  Data: 0x00 0x00 0xCC 0x8D 0xFF 0xFF 0xFF 0x92
[16:35:39.466] Extended ID: 0x0260B606  DLC: 8  Data: 0x01 0x00 0x00 0x00 0x00 0x00 0x00 0x00
[16:35:39.495] Extended ID: 0x02203607  DLC: 5  Data: 0x00 0x00 0x00 0x03 0x00
[16:35:39.516] Extended ID: 0x03FF1000  DLC: 8  Data: 0x00 0x00 0x11 0x22 0x00 0x00 0x00 0x01
[16:35:39.526] Extended ID: 0x03FF1001  DLC: 8  Data: 0x00 0x00 0x00 0x00 0x00 0x00 0x00 0x00
[16:35:39.537] Extended ID: 0x03FF1603  DLC: 8  Data: 0x00 0x00 0xCD 0x23 0x00 0x00 0x00 0x00
[16:35:39.548] Extended ID: 0x03FF1605  DLC: 8  Data: 0x01 0x00 0x00 0x00 0x00 0x00 0x00 0x00
[16:35:39.621] Extended ID: 0x03FF1000  DLC: 8  Data: 0x00 0x00 0x11 0x22 0x00 0x00 0x00 0x01
[16:35:39.631] Extended ID: 0x03FF1001  DLC: 8  Data: 0x00 0x00 0x00 0x00 0x00 0x00 0x00 0x00
[16:35:39.636] Extended ID: 0x02181606  DLC: 8  Data: 0x01 0x00 0x19 0x00 0x01 0x03 0x02 0x00
[16:35:39.645] Extended ID: 0x03FF1603  DLC: 8  Data: 0x00 0x00 0xCD 0x23 0x00 0x00 0x00 0x00
[16:35:39.650] Extended ID: 0x03FF1605  DLC: 8  Data: 0x01 0x00 0x00 0x00 0x00 0x00 0x00 0x00
[16:35:39.667] Extended ID: 0x02203606  DLC: 8  Data: 0x01 0x01 0x00 0x01 0x00 0x01 0x00 0x00
[16:35:39.697] Extended ID: 0x02181608  DLC: 8  Data: 0x05 0x00 0x00 0x00 0x01 0x00 0x00 0x00
[16:35:39.725] Extended ID: 0x03FF1000  DLC: 8  Data: 0x00 0x00 0x11 0x22 0x00 0x00 0x00 0x01
[16:35:39.731] Extended ID: 0x02181609  DLC: 8  Data: 0x00 0x00 0x00 0x00 0x00 0x00 0x00 0x00
[16:35:39.740] Extended ID: 0x03FF1001  DLC: 8  Data: 0x00 0x00 0x00 0x00 0x00 0x00 0x00 0x00
[16:35:39.745] Extended ID: 0x03FF1603  DLC: 8  Data: 0x00 0x00 0xCD 0x23 0x00 0x00 0x00 0x00
[16:35:39.753] Extended ID: 0x05FF4610  DLC: 8  Data: 0x00 0x00 0xCC 0x8D 0xFF 0xFF 0xFF 0x92
[16:35:39.759] Extended ID: 0x02488600  DLC: 8  Data: 0x00 0x00 0x00 0x00 0x00 0x00 0x00 0x00
[16:35:39.767] Extended ID: 0x03FF1605  DLC: 8  Data: 0x01 0x00 0x00 0x00 0x00 0x00 0x00 0x00
[16:35:39.772] Extended ID: 0x03121606  DLC: 8  Data: 0x00 0x00 0x00 0x00 0x00 0x00 0x00 0x00
[16:35:39.783] Extended ID: 0x02213500  DLC: 0  Data:
[16:35:39.796] Extended ID: 0x04F93500  DLC: 8  Data: 0x00 0x00 0x00 0xED 0x00 0x00 0x00 0x00
[16:35:39.831] Extended ID: 0x03FF1000  DLC: 8  Data: 0x00 0x00 0x11 0x22 0x00 0x00 0x00 0x01
[16:35:39.841] Extended ID: 0x03FF1001  DLC: 8  Data: 0x00 0x00 0x00 0x00 0x00 0x00 0x00 0x00
[16:35:39.852] Extended ID: 0x03FF1603  DLC: 8  Data: 0x00 0x00 0xCD 0x23 0x00 0x00 0x00 0x00
[16:35:39.861] Extended ID: 0x04FF3602  DLC: 8  Data: 0x00 0x00 0x00 0x00 0x00 0x00 0x00 0x00
[16:35:39.866] Extended ID: 0x03FF1605  DLC: 8  Data: 0x01 0x00 0x00 0x00 0x00 0x00 0x00 0x00
[16:35:39.936] Extended ID: 0x03FF1000  DLC: 8  Data: 0x00 0x00 0x11 0x22 0x00 0x00 0x00 0x01
[16:35:39.946] Extended ID: 0x03FF1001  DLC: 8  Data: 0x00 0x00 0x00 0x00 0x00 0x00 0x00 0x00
[16:35:39.957] Extended ID: 0x03FF1603  DLC: 8  Data: 0x00 0x00 0xCD 0x23 0x00 0x00 0x00 0x00
[16:35:39.967] Extended ID: 0x03FF1605  DLC: 8  Data: 0x01 0x00 0x00 0x00 0x00 0x00 0x00 0x00
[16:35:40.012] Extended ID: 0x05FF4610  DLC: 8  Data: 0x00 0x00 0xCC 0x8D 0xFF 0xFF 0xFF 0xA3
[16:35:40.041] Extended ID: 0x03FF1000  DLC: 8  Data: 0x00 0x00 0x11 0x22 0x00 0x00 0x00 0x01
[16:35:40.051] Extended ID: 0x03FF1001  DLC: 8  Data: 0x00 0x00 0x00 0x00 0x00 0x00 0x00 0x00
[16:35:40.056] Extended ID: 0x05FF4001  DLC: 8  Data: 0x00 0x00 0x00 0x00 0x00 0x00 0x00 0x00
[16:35:40.065] Extended ID: 0x05FF4000  DLC: 8  Data: 0x00 0x00 0x00 0x00 0x00 0x00 0x00 0x00
[16:35:40.070] Extended ID: 0x03FF1603  DLC: 8  Data: 0x00 0x00 0xCD 0x23 0x00 0x00 0x00 0x00
[16:35:40.079] Extended ID: 0x03FF1605  DLC: 8  Data: 0x01 0x00 0x00 0x00 0x00 0x00 0x00 0x00
[16:35:40.135] Extended ID: 0x05FF4602  DLC: 8  Data: 0xB8 0x0F 0xB5 0x0F 0xB7 0x0F 0xB5 0x0F
[16:35:40.145] Extended ID: 0x05FF4603  DLC: 8  Data: 0xB4 0x0F 0xBD 0x0F 0xBD 0x0F 0xBE 0x0F
[16:35:40.150] Extended ID: 0x03FF1000  DLC: 8  Data: 0x00 0x00 0x11 0x22 0x00 0x00 0x00 0x01
[16:35:40.158] Extended ID: 0x05FF4604  DLC: 8  Data: 0xBF 0x0F 0xC1 0x0F 0xC3 0x0F 0xC2 0x0F
[16:35:40.164] Extended ID: 0x03FF1001  DLC: 8  Data: 0x00 0x00 0x00 0x00 0x00 0x00 0x00 0x00
[16:35:40.172] Extended ID: 0x03FF1603  DLC: 8  Data: 0x00 0x00 0xCD 0x23 0x00 0x00 0x00 0x00
[16:35:40.177] Extended ID: 0x05FF4605  DLC: 8  Data: 0xC3 0x0F 0x00 0x00 0x00 0x00 0x00 0x00
[16:35:40.186] Extended ID: 0x03FF1605  DLC: 8  Data: 0x01 0x00 0x00 0x00 0x00 0x00 0x00 0x00
[16:35:40.191] Extended ID: 0x03FF1600  DLC: 8  Data: 0x14 0x2B 0x00 0x01 0x04 0x00 0x13 0x19
[16:35:40.197] Extended ID: 0x05FF4606  DLC: 3  Data: 0x11 0x11 0x10
[16:35:40.205] Extended ID: 0x03FF1601  DLC: 8  Data: 0x6E 0x50 0x00 0x00 0x00 0x00 0x00 0x00
[16:35:40.208] Extended ID: 0x05FF4607  DLC: 3  Data: 0x10 0x13 0x10
[16:35:40.216] Extended ID: 0x03FF1602  DLC: 8  Data: 0x01 0x8C 0x71 0x00 0x00 0x00 0x00 0x00
[16:35:40.221] Extended ID: 0x05FF4608  DLC: 4  Data: 0x00 0x19 0x00 0x7C
[16:35:40.227] Extended ID: 0x03FF1604  DLC: 8  Data: 0x00 0x00 0x00 0x00 0x00 0x00 0x00 0x00
[16:35:40.234] Extended ID: 0x05FF4609  DLC: 7  Data: 0x03 0x00 0x03 0x52 0x03 0xD4 0x00
[16:35:40.251] Extended ID: 0x03FF1000  DLC: 8  Data: 0x00 0x00 0x11 0x22 0x00 0x00 0x00 0x01
[16:35:40.261] Extended ID: 0x03FF1001  DLC: 8  Data: 0x00 0x00 0x00 0x00 0x00 0x00 0x00 0x00
[16:35:40.271] Extended ID: 0x03FF1603  DLC: 8  Data: 0x00 0x00 0xCD 0x23 0x00 0x00 0x00 0x00
[16:35:40.277] Extended ID: 0x05FF4610  DLC: 8  Data: 0x00 0x00 0xCC 0x8D 0xFF 0xFF 0xFF 0xA3
[16:35:40.286] Extended ID: 0x03FF1605  DLC: 8  Data: 0x01 0x00 0x00 0x00 0x00 0x00 0x00 0x00
[16:35:40.356] Extended ID: 0x03FF1000  DLC: 8  Data: 0x00 0x00 0x11 0x22 0x00 0x00 0x00 0x01
[16:35:40.364] Extended ID: 0x04FF3602  DLC: 8  Data: 0x00 0x00 0x00 0x00 0x00 0x00 0x00 0x00
[16:35:40.370] Extended ID: 0x03FF1001  DLC: 8  Data: 0x00 0x00 0x00 0x00 0x00 0x00 0x00 0x00
[16:35:40.378] Extended ID: 0x03FF1603  DLC: 8  Data: 0x00 0x00 0xCD 0x23 0x00 0x00 0x00 0x00
[16:35:40.387] Extended ID: 0x02FF2605  DLC: 8  Data: 0x00 0x00 0x05 0x01 0x07 0x06 0x05 0x06
[16:35:40.392] Extended ID: 0x03FF1605  DLC: 8  Data: 0x01 0x00 0x00 0x00 0x00 0x00 0x00 0x00
[16:35:40.417] Extended ID: 0x02FF2604  DLC: 8  Data: 0x00 0x00 0x00 0x00 0x00 0x00 0x00 0x00
[16:35:40.447] Extended ID: 0x02FF2704  DLC: 8  Data: 0x02 0x00 0x00 0x00 0x00 0x00 0x00 0x00
[16:35:40.461] Extended ID: 0x03FF1000  DLC: 8  Data: 0x00 0x00 0x11 0x22 0x00 0x00 0x00 0x01
[16:35:40.471] Extended ID: 0x03FF1001  DLC: 8  Data: 0x00 0x00 0x00 0x00 0x00 0x00 0x00 0x00
[16:35:40.476] Extended ID: 0x0260B606  DLC: 8  Data: 0x01 0x00 0x00 0x00 0x00 0x00 0x00 0x00
# EVENT [16:35:42.755]: Unlocked
[16:35:42.756] Extended ID: 0x03FF1603  DLC: 8  Data: 0x00 0x00 0xCD 0x23 0x00 0x00 0x00 0x00
[16:35:42.756] Extended ID: 0x03FF1605  DLC: 8  Data: 0x01 0x00 0x00 0x00 0x00 0x00 0x00 0x00
[16:35:42.756] Extended ID: 0x02203607  DLC: 5  Data: 0x00 0x00 0x00 0x03 0x00
[16:35:42.756] Extended ID: 0x05FF4610  DLC: 8  Data: 0x00 0x00 0xCC 0x8D 0xFF 0xFF 0xFF 0xA3
[16:35:42.756] Extended ID: 0x02181606  DLC: 8  Data: 0x01 0x00 0x19 0x00 0x01 0x03 0x02 0x00
[16:35:42.757] Extended ID: 0x03FF1000  DLC: 8  Data: 0x00 0x00 0x11 0x22 0x00 0x00 0x00 0x01
[16:35:42.757] Extended ID: 0x02203606  DLC: 8  Data: 0x01 0x01 0x00 0x01 0x00 0x01 0x00 0x00
[16:35:42.757] Extended ID: 0x03FF1001  DLC: 8  Data: 0x00 0x00 0x00 0x00 0x00 0x00 0x00 0x00
[16:35:42.757] Extended ID: 0x03FF1603  DLC: 8  Data: 0x00 0x00 0xCD 0x23 0x00 0x00 0x00 0x00
[16:35:42.758] Extended ID: 0x03FF1605  DLC: 8  Data: 0x01 0x00 0x00 0x00 0x00 0x00 0x00 0x00
[16:35:42.758] Extended ID: 0x02181608  DLC: 8  Data: 0x05 0x00 0x00 0x00 0x01 0x00 0x00 0x00
[16:35:42.758] Extended ID: 0x03121606  DLC: 8  Data: 0x00 0x00 0x00 0x00 0x00 0x00 0x00 0x00
[16:35:42.758] Extended ID: 0x02181609  DLC: 8  Data: 0x00 0x00 0x00 0x00 0x00 0x00 0x00 0x00
[16:35:42.759] Extended ID: 0x02488600  DLC: 8  Data: 0x00 0x00 0x00 0x00 0x00 0x00 0x00 0x00
[16:35:42.759] Extended ID: 0x03FF1000  DLC: 8  Data: 0x00 0x00 0x11 0x22 0x00 0x00 0x00 0x01
[16:35:42.759] Extended ID: 0x03FF1001  DLC: 8  Data: 0x00 0x00 0x00 0x00 0x00 0x00 0x00 0x00
[16:35:42.759] Extended ID: 0x02213501  DLC: 0  Data:
[16:35:42.759] Extended ID: 0x03FF1603  DLC: 8  Data: 0x00 0x00 0xCD 0x23 0x00 0x00 0x00 0x00
[16:35:42.759] Extended ID: 0x04F93501  DLC: 8  Data: 0x00 0x00 0x00 0x08 0x00 0x00 0x00 0x00
[16:35:42.760] Extended ID: 0x03FF1605  DLC: 8  Data: 0x01 0x00 0x00 0x00 0x00 0x00 0x00 0x00
[16:35:42.760] Extended ID: 0x03FF1000  DLC: 8  Data: 0x00 0x00 0x11 0x22 0x00 0x00 0x00 0x01
[16:35:42.760] Extended ID: 0x03FF1001  DLC: 8  Data: 0x00 0x00 0x00 0x00 0x00 0x00 0x00 0x00
[16:35:42.760] Extended ID: 0x03FF1603  DLC: 8  Data: 0x00 0x00 0xCD 0x23 0x00 0x00 0x00 0x00
[16:35:42.761] Extended ID: 0x03FF1605  DLC: 8  Data: 0x01 0x00 0x00 0x00 0x00 0x00 0x00 0x00
[16:35:42.761] Extended ID: 0x05FF4610  DLC: 8  Data: 0x00 0x00 0xCC 0x8D 0xFF 0xFF 0xFF 0x98
[16:35:42.761] Extended ID: 0x04FF3602  DLC: 8  Data: 0x00 0x00 0x00 0x00 0x00 0x00 0x00 0x00
[16:35:42.761] Extended ID: 0x03FF1000  DLC: 8  Data: 0x00 0x00 0x11 0x22 0x00 0x00 0x00 0x01
[16:35:42.761] Extended ID: 0x03FF1001  DLC: 8  Data: 0x00 0x00 0x00 0x00 0x00 0x00 0x00 0x00
[16:35:42.762] Extended ID: 0x03FF1603  DLC: 8  Data: 0x00 0x00 0xCD 0x23 0x00 0x00 0x00 0x00
[16:35:42.762] Extended ID: 0x03FF1605  DLC: 8  Data: 0x01 0x00 0x00 0x00 0x00 0x00 0x00 0x00
[16:35:42.762] Extended ID: 0x03FF1000  DLC: 8  Data: 0x00 0x00 0x11 0x22 0x00 0x00 0x00 0x01
[16:35:42.762] Extended ID: 0x03FF1001  DLC: 8  Data: 0x00 0x00 0x00 0x00 0x00 0x00 0x00 0x00
[16:35:42.762] Extended ID: 0x03FF1603  DLC: 8  Data: 0x00 0x00 0xCD 0x23 0x00 0x00 0x00 0x00
[16:35:42.763] Extended ID: 0x03FF1605  DLC: 8  Data: 0x01 0x00 0x00 0x00 0x00 0x00 0x00 0x00
[16:35:42.763] Extended ID: 0x05FF4001  DLC: 8  Data: 0x00 0x00 0x00 0x00 0x00 0x00 0x00 0x00
[16:35:42.763] Extended ID: 0x05FF4610  DLC: 8  Data: 0x00 0x00 0xCC 0x8D 0xFF 0xFF 0xFF 0x98
[16:35:42.763] Extended ID: 0x05FF4000  DLC: 8  Data: 0x00 0x00 0x00 0x00 0x00 0x00 0x00 0x00
[16:35:42.763] Extended ID: 0x03FF1000  DLC: 8  Data: 0x00 0x00 0x11 0x22 0x00 0x00 0x00 0x01
[16:35:42.764] Extended ID: 0x03FF1001  DLC: 8  Data: 0x00 0x00 0x00 0x00 0x00 0x00 0x00 0x00
[16:35:42.764] Extended ID: 0x03FF1603  DLC: 8  Data: 0x00 0x00 0xCD 0x23 0x00 0x00 0x00 0x00
[16:35:42.764] Extended ID: 0x03FF1605  DLC: 8  Data: 0x01 0x00 0x00 0x00 0x00 0x00 0x00 0x00
[16:35:42.764] Extended ID: 0x02181606  DLC: 8  Data: 0x01 0x00 0x19 0x00 0x01 0x03 0x02 0x00
[16:35:42.764] Extended ID: 0x05FF4602  DLC: 8  Data: 0xB7 0x0F 0xB5 0x0F 0xB7 0x0F 0xB5 0x0F
[16:35:42.765] Extended ID: 0x05FF4603  DLC: 8  Data: 0xB5 0x0F 0xBD 0x0F 0xBD 0x0F 0xBE 0x0F
[16:35:42.765] Extended ID: 0x05FF4604  DLC: 8  Data: 0xBF 0x0F 0xC1 0x0F 0xC3 0x0F 0xC2 0x0F
[16:35:42.765] Extended ID: 0x03FF1600  DLC: 8  Data: 0x14 0x2B 0x00 0x01 0x04 0x00 0x13 0x19
[16:35:42.765] Extended ID: 0x02203606  DLC: 8  Data: 0x01 0x01 0x00 0x01 0x00 0x01 0x00 0x00
[16:35:42.765] Extended ID: 0x05FF4605  DLC: 8  Data: 0xC3 0x0F 0x00 0x00 0x00 0x00 0x00 0x00
[16:35:42.766] Extended ID: 0x03FF1601  DLC: 8  Data: 0x6E 0x50 0x00 0x00 0x00 0x00 0x00 0x00
[16:35:42.766] Extended ID: 0x03FF1602  DLC: 8  Data: 0x01 0x8C 0x71 0x00 0x00 0x00 0x00 0x00
[16:35:42.766] Extended ID: 0x03FF1604  DLC: 8  Data: 0x00 0x00 0x00 0x00 0x00 0x00 0x00 0x00
[16:35:42.766] Extended ID: 0x05FF4606  DLC: 3  Data: 0x11 0x11 0x10
[16:35:42.766] Extended ID: 0x03FF1000  DLC: 8  Data: 0x00 0x00 0x11 0x22 0x00 0x00 0x00 0x01
[16:35:42.767] Extended ID: 0x05FF4607  DLC: 3  Data: 0x10 0x13 0x10
[16:35:42.767] Extended ID: 0x03FF1001  DLC: 8  Data: 0x00 0x00 0x00 0x00 0x00 0x00 0x00 0x00
[16:35:42.767] Extended ID: 0x05FF4608  DLC: 4  Data: 0x00 0x19 0x00 0x7C
[16:35:42.767] Extended ID: 0x03FF1603  DLC: 8  Data: 0x00 0x00 0xCD 0x23 0x00 0x00 0x00 0x00
[16:35:42.767] Extended ID: 0x05FF4609  DLC: 7  Data: 0x03 0x00 0x03 0x52 0x03 0xD4 0x00
[16:35:42.768] Extended ID: 0x03FF1605  DLC: 8  Data: 0x01 0x00 0x00 0x00 0x00 0x00 0x00 0x00
[16:35:42.768] Extended ID: 0x03121606  DLC: 8  Data: 0x00 0x00 0x00 0x00 0x00 0x00 0x00 0x00
[16:35:42.768] Extended ID: 0x02488600  DLC: 8  Data: 0x00 0x00 0x00 0x00 0x00 0x00 0x00 0x00
[16:35:42.768] Extended ID: 0x02181608  DLC: 8  Data: 0x05 0x00 0x00 0x00 0x01 0x00 0x00 0x00
[16:35:42.768] Extended ID: 0x03FF1000  DLC: 8  Data: 0x00 0x00 0x11 0x22 0x00 0x00 0x00 0x01
[16:35:42.769] Extended ID: 0x02294502  DLC: 0  Data:
[16:35:42.769] Extended ID: 0x05124502  DLC: 8  Data: 0x52 0x50 0x31 0x33 0x53 0x33 0x35 0x41
[16:35:42.769] Extended ID: 0x03FF1001  DLC: 8  Data: 0x00 0x00 0x00 0x00 0x00 0x00 0x00 0x00
[16:35:42.769] Extended ID: 0x03FF1603  DLC: 8  Data: 0x00 0x00 0xCD 0x23 0x00 0x00 0x00 0x00
[16:35:42.769] Extended ID: 0x03FF1605  DLC: 8  Data: 0x01 0x00 0x00 0x00 0x00 0x00 0x00 0x00
[16:35:42.770] Extended ID: 0x05FF4610  DLC: 8  Data: 0x00 0x00 0xCC 0x8D 0xFF 0xFF 0xFF 0x98
[16:35:42.770] Extended ID: 0x04FF3602  DLC: 8  Data: 0x00 0x00 0x00 0x00 0x00 0x00 0x00 0x00
[16:35:42.770] Extended ID: 0x02FF2605  DLC: 8  Data: 0x00 0x00 0x05 0x01 0x07 0x06 0x05 0x07
[16:35:42.770] Extended ID: 0x03FF1000  DLC: 8  Data: 0x00 0x00 0x11 0x22 0x00 0x00 0x00 0x01
[16:35:42.771] Extended ID: 0x03FF1001  DLC: 8  Data: 0x00 0x00 0x00 0x00 0x00 0x00 0x00 0x00
[16:35:42.771] Extended ID: 0x03FF1603  DLC: 8  Data: 0x00 0x00 0xCD 0x23 0x00 0x00 0x00 0x00
[16:35:42.771] Extended ID: 0x02FF2604  DLC: 8  Data: 0x00 0x00 0x00 0x00 0x00 0x00 0x00 0x00
[16:35:42.771] Extended ID: 0x03FF1605  DLC: 8  Data: 0x01 0x00 0x00 0x00 0x00 0x00 0x00 0x00
[16:35:42.771] Extended ID: 0x02FF2704  DLC: 8  Data: 0x02 0x00 0x00 0x00 0x00 0x00 0x00 0x00
[16:35:42.772] Extended ID: 0x0260B606  DLC: 8  Data: 0x01 0x00 0x00 0x00 0x00 0x00 0x00 0x00
[16:35:42.772] Extended ID: 0x03FF1000  DLC: 8  Data: 0x00 0x00 0x11 0x22 0x00 0x00 0x00 0x01
[16:35:42.772] Extended ID: 0x02203607  DLC: 5  Data: 0x00 0x00 0x00 0x03 0x00
[16:35:42.772] Extended ID: 0x03FF1001  DLC: 8  Data: 0x00 0x00 0x00 0x00 0x00 0x00 0x00 0x00
[16:35:42.773] Extended ID: 0x03FF1603  DLC: 8  Data: 0x00 0x00 0xCD 0x23 0x00 0x00 0x00 0x00
[16:35:42.773] Extended ID: 0x03FF1605  DLC: 8  Data: 0x01 0x00 0x00 0x00 0x00 0x00 0x00 0x00
[16:35:42.773] Extended ID: 0x05FF4610  DLC: 8  Data: 0x00 0x00 0xCC 0x8D 0xFF 0xFF 0xFF 0x98
[16:35:42.774] Extended ID: 0x03FF1000  DLC: 8  Data: 0x00 0x00 0x11 0x22 0x00 0x00 0x00 0x01
[16:35:42.774] Extended ID: 0x03FF1001  DLC: 8  Data: 0x00 0x00 0x00 0x00 0x00 0x00 0x00 0x00
[16:35:42.774] Extended ID: 0x03FF1603  DLC: 8  Data: 0x00 0x00 0xCD 0x23 0x00 0x00 0x00 0x00
[16:35:42.774] Extended ID: 0x03FF1605  DLC: 8  Data: 0x01 0x00 0x00 0x00 0x00 0x00 0x00 0x00
[16:35:42.774] Extended ID: 0x03FF1000  DLC: 8  Data: 0x00 0x00 0x11 0x22 0x00 0x00 0x00 0x01
[16:35:42.775] Extended ID: 0x03FF1001  DLC: 8  Data: 0x00 0x00 0x00 0x00 0x00 0x00 0x00 0x00
[16:35:42.775] Extended ID: 0x03FF1603  DLC: 8  Data: 0x00 0x00 0xCD 0x23 0x00 0x00 0x00 0x00
[16:35:42.775] Extended ID: 0x03FF1605  DLC: 8  Data: 0x01 0x00 0x00 0x00 0x00 0x00 0x00 0x00
[16:35:42.775] Extended ID: 0x03FF1000  DLC: 8  Data: 0x00 0x00 0x11 0x22 0x00 0x00 0x00 0x01
[16:35:42.775] Extended ID: 0x03FF1001  DLC: 8  Data: 0x00 0x00 0x00 0x00 0x00 0x00 0x00 0x00
[16:35:42.776] Extended ID: 0x03FF1603  DLC: 8  Data: 0x00 0x00 0xCD 0x23 0x00 0x00 0x00 0x00
[16:35:42.776] Extended ID: 0x03FF1605  DLC: 8  Data: 0x01 0x00 0x00 0x00 0x00 0x00 0x00 0x00
[16:35:42.776] Extended ID: 0x04FF3602  DLC: 8  Data: 0x00 0x00 0x00 0x00 0x00 0x00 0x00 0x00
[16:35:42.776] Extended ID: 0x05FF4610  DLC: 8  Data: 0x00 0x00 0xCC 0x8D 0xFF 0xFF 0xFF 0xA3
[16:35:42.776] Extended ID: 0x02181606  DLC: 8  Data: 0x01 0x00 0x19 0x00 0x01 0x03 0x02 0x00
[16:35:42.777] Extended ID: 0x03FF1000  DLC: 8  Data: 0x00 0x00 0x11 0x22 0x00 0x00 0x00 0x01
[16:35:42.777] Extended ID: 0x03FF1001  DLC: 8  Data: 0x00 0x00 0x00 0x00 0x00 0x00 0x00 0x00
[16:35:42.777] Extended ID: 0x02203606  DLC: 8  Data: 0x01 0x01 0x00 0x01 0x00 0x01 0x00 0x00
[16:35:42.777] Extended ID: 0x03FF1603  DLC: 8  Data: 0x00 0x00 0xCD 0x23 0x00 0x00 0x00 0x00
[16:35:42.777] Extended ID: 0x03FF1605  DLC: 8  Data: 0x01 0x00 0x00 0x00 0x00 0x00 0x00 0x00
[16:35:42.778] Extended ID: 0x03121606  DLC: 8  Data: 0x00 0x00 0x00 0x00 0x00 0x00 0x00 0x00
[16:35:42.778] Extended ID: 0x02181608  DLC: 8  Data: 0x05 0x00 0x00 0x00 0x01 0x00 0x00 0x00
[16:35:42.778] Extended ID: 0x02181609  DLC: 8  Data: 0x00 0x00 0x00 0x00 0x00 0x00 0x00 0x00
[16:35:42.778] Extended ID: 0x03FF1000  DLC: 8  Data: 0x00 0x00 0x11 0x22 0x00 0x00 0x00 0x01
[16:35:42.778] Extended ID: 0x03FF1001  DLC: 8  Data: 0x00 0x00 0x00 0x00 0x00 0x00 0x00 0x00
[16:35:42.779] Extended ID: 0x02488600  DLC: 8  Data: 0x00 0x00 0x00 0x00 0x00 0x00 0x00 0x00
[16:35:42.779] Extended ID: 0x03FF1603  DLC: 8  Data: 0x00 0x00 0xCD 0x23 0x00 0x00 0x00 0x00
[16:35:42.779] Extended ID: 0x03FF1605  DLC: 8  Data: 0x01 0x00 0x00 0x00 0x00 0x00 0x00 0x00
[16:35:42.779] Extended ID: 0x02294503  DLC: 0  Data:
[16:35:42.779] Extended ID: 0x05124503  DLC: 8  Data: 0x00 0x14 0x0C 0x08 0x00 0x00 0x08 0x76
[16:35:42.779] Extended ID: 0x05FF4001  DLC: 8  Data: 0x00 0x00 0x00 0x00 0x00 0x00 0x00 0x00
[16:35:42.780] Extended ID: 0x05FF4000  DLC: 8  Data: 0x00 0x00 0x00 0x00 0x00 0x00 0x00 0x00
[16:35:42.780] Extended ID: 0x03FF1000  DLC: 8  Data: 0x00 0x00 0x11 0x22 0x00 0x00 0x00 0x01
[16:35:42.780] Extended ID: 0x05FF4610  DLC: 8  Data: 0x00 0x00 0xCC 0x8D 0xFF 0xFF 0xFF 0xA3
[16:35:42.780] Extended ID: 0x03FF1001  DLC: 8  Data: 0x00 0x00 0x00 0x00 0x00 0x00 0x00 0x00
[16:35:42.780] Extended ID: 0x03FF1603  DLC: 8  Data: 0x00 0x00 0xCD 0x23 0x00 0x00 0x00 0x00
[16:35:42.781] Extended ID: 0x03FF1605  DLC: 8  Data: 0x01 0x00 0x00 0x00 0x00 0x00 0x00 0x00
[16:35:42.781] Extended ID: 0x05FF4602  DLC: 8  Data: 0xB7 0x0F 0xB5 0x0F 0xB7 0x0F 0xB5 0x0F
[16:35:42.781] Extended ID: 0x03FF1600  DLC: 8  Data: 0x14 0x2B 0x00 0x01 0x04 0x00 0x13 0x19
[16:35:42.781] Extended ID: 0x05FF4603  DLC: 8  Data: 0xB5 0x0F 0xBD 0x0F 0xBD 0x0F 0xBE 0x0F
[16:35:42.781] Extended ID: 0x03FF1601  DLC: 8  Data: 0x6E 0x50 0x00 0x00 0x00 0x00 0x00 0x00
[16:35:42.782] Extended ID: 0x05FF4604  DLC: 8  Data: 0xBF 0x0F 0xC1 0x0F 0xC3 0x0F 0xC2 0x0F
[16:35:42.782] Extended ID: 0x03FF1602  DLC: 8  Data: 0x01 0x8C 0x71 0x00 0x00 0x00 0x00 0x00
[16:35:42.782] Extended ID: 0x05FF4605  DLC: 8  Data: 0xC3 0x0F 0x00 0x00 0x00 0x00 0x00 0x00
[16:35:42.782] Extended ID: 0x03FF1604  DLC: 8  Data: 0x00 0x00 0x00 0x00 0x00 0x00 0x00 0x00
[16:35:42.782] Extended ID: 0x03FF1000  DLC: 8  Data: 0x00 0x00 0x11 0x22 0x00 0x00 0x00 0x01
[16:35:42.782] Extended ID: 0x05FF4606  DLC: 3  Data: 0x11 0x11 0x10
[16:35:42.783] Extended ID: 0x03FF1001  DLC: 8  Data: 0x00 0x00 0x00 0x00 0x00 0x00 0x00 0x00
[16:35:42.783] Extended ID: 0x05FF4607  DLC: 3  Data: 0x10 0x13 0x10
[16:35:42.783] Extended ID: 0x03FF1603  DLC: 8  Data: 0x00 0x00 0xCD 0x23 0x00 0x00 0x00 0x00
[16:35:42.783] Extended ID: 0x05FF4608  DLC: 4  Data: 0x00 0x19 0x00 0x7C
[16:35:42.783] Extended ID: 0x03FF1605  DLC: 8  Data: 0x01 0x00 0x00 0x00 0x00 0x00 0x00 0x00
[16:35:42.784] Extended ID: 0x05FF4609  DLC: 7  Data: 0x03 0x00 0x03 0x52 0x03 0xD4 0x00
[16:35:42.784] Extended ID: 0x03FF1000  DLC: 8  Data: 0x00 0x00 0x11 0x22 0x00 0x00 0x00 0x01
[16:35:42.784] Extended ID: 0x03FF1001  DLC: 8  Data: 0x00 0x00 0x00 0x00 0x00 0x00 0x00 0x00
[16:35:42.784] Extended ID: 0x03FF1603  DLC: 8  Data: 0x00 0x00 0xCD 0x23 0x00 0x00 0x00 0x00
[16:35:42.784] Extended ID: 0x04FF3602  DLC: 8  Data: 0x00 0x00 0x00 0x00 0x00 0x00 0x00 0x00
[16:35:42.785] Extended ID: 0x03FF1605  DLC: 8  Data: 0x01 0x00 0x00 0x00 0x00 0x00 0x00 0x00
[16:35:42.785] Extended ID: 0x02FF2605  DLC: 8  Data: 0x00 0x00 0x05 0x01 0x07 0x06 0x05 0x08
[16:35:42.785] Extended ID: 0x05FF4610  DLC: 8  Data: 0x00 0x00 0xCC 0x8D 0xFF 0xFF 0xFF 0xA3
[16:35:42.785] Extended ID: 0x02FF2604  DLC: 8  Data: 0x00 0x00 0x00 0x00 0x00 0x00 0x00 0x00
[16:35:42.785] Extended ID: 0x03FF1000  DLC: 8  Data: 0x00 0x00 0x11 0x22 0x00 0x00 0x00 0x01
[16:35:42.786] Extended ID: 0x03FF1001  DLC: 8  Data: 0x00 0x00 0x00 0x00 0x00 0x00 0x00 0x00
[16:35:42.786] Extended ID: 0x02FF2704  DLC: 8  Data: 0x02 0x00 0x00 0x00 0x00 0x00 0x00 0x00
[16:35:42.786] Extended ID: 0x03FF1603  DLC: 8  Data: 0x00 0x00 0xCD 0x23 0x00 0x00 0x00 0x00
[16:35:42.786] Extended ID: 0x03FF1605  DLC: 8  Data: 0x01 0x00 0x00 0x00 0x00 0x00 0x00 0x00
[16:35:42.786] Extended ID: 0x0260B606  DLC: 8  Data: 0x01 0x00 0x00 0x00 0x00 0x00 0x00 0x00
[16:35:42.787] Extended ID: 0x02203607  DLC: 5  Data: 0x00 0x00 0x00 0x03 0x00
[16:35:42.787] Extended ID: 0x03FF1000  DLC: 8  Data: 0x00 0x00 0x11 0x22 0x00 0x00 0x00 0x01
[16:35:42.787] Extended ID: 0x03FF1001  DLC: 8  Data: 0x00 0x00 0x00 0x00 0x00 0x00 0x00 0x00
[16:35:42.787] Extended ID: 0x03FF1603  DLC: 8  Data: 0x00 0x00 0xCD 0x23 0x00 0x00 0x00 0x00
[16:35:42.787] Extended ID: 0x03FF1605  DLC: 8  Data: 0x01 0x00 0x00 0x00 0x00 0x00 0x00 0x00
[16:35:42.788] Extended ID: 0x03FF1000  DLC: 8  Data: 0x00 0x00 0x11 0x22 0x00 0x00 0x00 0x01
[16:35:42.788] Extended ID: 0x03FF1001  DLC: 8  Data: 0x00 0x00 0x00 0x00 0x00 0x00 0x00 0x00
[16:35:42.788] Extended ID: 0x02181606  DLC: 8  Data: 0x01 0x00 0x19 0x00 0x01 0x03 0x02 0x00
[16:35:42.788] Extended ID: 0x03FF1603  DLC: 8  Data: 0x00 0x00 0xCD 0x23 0x00 0x00 0x00 0x00
[16:35:42.788] Extended ID: 0x03FF1605  DLC: 8  Data: 0x01 0x00 0x00 0x00 0x00 0x00 0x00 0x00
[16:35:42.789] Extended ID: 0x05FF4610  DLC: 8  Data: 0x00 0x00 0xCC 0x8F 0xFF 0xFF 0xFF 0xA3
[16:35:42.789] Extended ID: 0x02203606  DLC: 8  Data: 0x01 0x01 0x00 0x01 0x00 0x01 0x00 0x00
[16:35:42.789] Extended ID: 0x02181608  DLC: 8  Data: 0x05 0x00 0x00 0x00 0x01 0x00 0x00 0x00
[16:35:42.789] Extended ID: 0x02181609  DLC: 8  Data: 0x00 0x00 0x00 0x00 0x00 0x00 0x00 0x00
[16:35:42.789] Extended ID: 0x03FF1000  DLC: 8  Data: 0x00 0x00 0x11 0x22 0x00 0x00 0x00 0x01
[16:35:42.790] Extended ID: 0x03FF1001  DLC: 8  Data: 0x00 0x00 0x00 0x00 0x00 0x00 0x00 0x00
[16:35:42.790] Extended ID: 0x03FF1603  DLC: 8  Data: 0x00 0x00 0xCD 0x23 0x00 0x00 0x00 0x00
[16:35:42.799] Extended ID: 0x02488600  DLC: 8  Data: 0x00 0x00 0x00 0x00 0x00 0x00 0x00 0x00
[16:35:42.804] Extended ID: 0x03FF1605  DLC: 8  Data: 0x01 0x00 0x00 0x00 0x00 0x00 0x00 0x00
[16:35:42.813] Extended ID: 0x03121606  DLC: 8  Data: 0x00 0x00 0x00 0x00 0x00 0x00 0x00 0x00
[16:35:42.829] Extended ID: 0x02294504  DLC: 0  Data:
[16:35:42.838] Extended ID: 0x05124504  DLC: 1  Data: 0x4FBATTERY: 4F
[16:35:42.875] Extended ID: 0x03FF1000  DLC: 8  Data: 0x00 0x00 0x11 0x22 0x00 0x00 0x00 0x01
[16:35:42.880] Extended ID: 0x04FF3602  DLC: 8  Data: 0x00 0x00 0x00 0x00 0x00 0x00 0x00 0x00
[16:35:42.889] Extended ID: 0x03FF1001  DLC: 8  Data: 0x00 0x00 0x00 0x00 0x00 0x00 0x00 0x00
[16:35:42.895] Extended ID: 0x03FF1603  DLC: 8  Data: 0x00 0x00 0xCD 0x23 0x00 0x00 0x00 0x00
[16:35:42.907] Extended ID: 0x03FF1605  DLC: 8  Data: 0x01 0x00 0x00 0x00 0x00 0x00 0x00 0x00
[16:35:42.960] Extended ID: 0x05FF4610  DLC: 8  Data: 0x00 0x00 0xCC 0x8F 0xFF 0xFF 0xFF 0x9D
[16:35:42.981] Extended ID: 0x03FF1000  DLC: 8  Data: 0x00 0x00 0x11 0x22 0x00 0x00 0x00 0x01
[16:35:42.991] Extended ID: 0x03FF1001  DLC: 8  Data: 0x00 0x00 0x00 0x00 0x00 0x00 0x00 0x00
[16:35:43.002] Extended ID: 0x03FF1603  DLC: 8  Data: 0x00 0x00 0xCD 0x23 0x00 0x00 0x00 0x00
[16:35:43.012] Extended ID: 0x03FF1605  DLC: 8  Data: 0x01 0x00 0x00 0x00 0x00 0x00 0x00 0x00
[16:35:43.086] Extended ID: 0x03FF1000  DLC: 8  Data: 0x00 0x00 0x11 0x22 0x00 0x00 0x00 0x01
[16:35:43.096] Extended ID: 0x03FF1001  DLC: 8  Data: 0x00 0x00 0x00 0x00 0x00 0x00 0x00 0x00
[16:35:43.107] Extended ID: 0x03FF1603  DLC: 8  Data: 0x00 0x00 0xCD 0x23 0x00 0x00 0x00 0x00
[16:35:43.117] Extended ID: 0x03FF1605  DLC: 8  Data: 0x01 0x00 0x00 0x00 0x00 0x00 0x00 0x00
[16:35:43.133] Extended ID: 0x05FF4001  DLC: 8  Data: 0x00 0x00 0x00 0x00 0x00 0x00 0x00 0x00
[16:35:43.138] Extended ID: 0x05FF4000  DLC: 8  Data: 0x00 0x00 0x00 0x00 0x00 0x00 0x00 0x00
[16:35:43.191] Extended ID: 0x03FF1000  DLC: 8  Data: 0x00 0x00 0x11 0x22 0x00 0x00 0x00 0x01
[16:35:43.201] Extended ID: 0x03FF1001  DLC: 8  Data: 0x00 0x00 0x00 0x00 0x00 0x00 0x00 0x00
[16:35:43.211] Extended ID: 0x03FF1603  DLC: 8  Data: 0x00 0x00 0xCD 0x23 0x00 0x00 0x00 0x00
[16:35:43.216] Extended ID: 0x05FF4602  DLC: 8  Data: 0xB8 0x0F 0xB5 0x0F 0xB7 0x0F 0xB5 0x0F
[16:35:43.225] Extended ID: 0x05FF4610  DLC: 8  Data: 0x00 0x00 0xCC 0x8F 0xFF 0xFF 0xFF 0x9D
[16:35:43.230] Extended ID: 0x03FF1605  DLC: 8  Data: 0x01 0x00 0x00 0x00 0x00 0x00 0x00 0x00
[16:35:43.238] Extended ID: 0x03FF1600  DLC: 8  Data: 0x14 0x2B 0x00 0x01 0x04 0x00 0x13 0x19
[16:35:43.244] Extended ID: 0x05FF4604  DLC: 8  Data: 0xBF 0x0F 0xC1 0x0F 0xC3 0x0F 0xC3 0x0F
[16:35:43.252] Extended ID: 0x03FF1601  DLC: 8  Data: 0x6E 0x50 0x00 0x00 0x00 0x00 0x00 0x00
[16:35:43.257] Extended ID: 0x05FF4605  DLC: 8  Data: 0xC4 0x0F 0x00 0x00 0x00 0x00 0x00 0x00
[16:35:43.266] Extended ID: 0x03FF1602  DLC: 8  Data: 0x01 0x8C 0x71 0x00 0x00 0x00 0x00 0x00
[16:35:43.271] Extended ID: 0x03FF1604  DLC: 8  Data: 0x00 0x00 0x00 0x00 0x00 0x00 0x00 0x00
[16:35:43.279] Extended ID: 0x05FF4603  DLC: 8  Data: 0xB4 0x0F 0xBD 0x0F 0xBD 0x0F 0xBE 0x0F
[16:35:43.285] Extended ID: 0x05FF4606  DLC: 3  Data: 0x11 0x11 0x10
[16:35:43.287] Extended ID: 0x05FF4607  DLC: 3  Data: 0x10 0x13 0x10
[16:35:43.296] Extended ID: 0x03FF1000  DLC: 8  Data: 0x00 0x00 0x11 0x22 0x00 0x00 0x00 0x01
[16:35:43.301] Extended ID: 0x05FF4608  DLC: 4  Data: 0x00 0x19 0x00 0x7C
[16:35:43.307] Extended ID: 0x03FF1001  DLC: 8  Data: 0x00 0x00 0x00 0x00 0x00 0x00 0x00 0x00
[16:35:43.315] Extended ID: 0x05FF4609  DLC: 7  Data: 0x03 0x00 0x03 0x52 0x03 0xD4 0x00
[16:35:43.320] Extended ID: 0x03FF1603  DLC: 8  Data: 0x00 0x00 0xCD 0x23 0x00 0x00 0x00 0x00
[16:35:43.328] Extended ID: 0x03FF1605  DLC: 8  Data: 0x01 0x00 0x00 0x00 0x00 0x00 0x00 0x00
[16:35:43.386] Extended ID: 0x04FF3602  DLC: 8  Data: 0x00 0x00 0x00 0x00 0x00 0x00 0x00 0x00
[16:35:43.401] Extended ID: 0x03FF1000  DLC: 8  Data: 0x00 0x00 0x11 0x22 0x00 0x00 0x00 0x01
[16:35:43.411] Extended ID: 0x03FF1001  DLC: 8  Data: 0x00 0x00 0x00 0x00 0x00 0x00 0x00 0x00
[16:35:43.419] Extended ID: 0x02FF2605  DLC: 8  Data: 0x00 0x00 0x05 0x01 0x07 0x06 0x05 0x09
[16:35:43.425] Extended ID: 0x03FF1603  DLC: 8  Data: 0x00 0x00 0xCD 0x23 0x00 0x00 0x00 0x00
[16:35:43.434] Extended ID: 0x03FF1605  DLC: 8  Data: 0x01 0x00 0x00 0x00 0x00 0x00 0x00 0x00
[16:35:43.450] Extended ID: 0x02FF2604  DLC: 8  Data: 0x00 0x00 0x00 0x00 0x00 0x00 0x00 0x00
[16:35:43.479] Extended ID: 0x02FF2704  DLC: 8  Data: 0x02 0x00 0x00 0x00 0x00 0x00 0x00 0x00
[16:35:43.485] Extended ID: 0x05FF4610  DLC: 8  Data: 0x00 0x00 0xCC 0x8F 0xFF 0xFF 0xFF 0x9D
[16:35:43.501] Extended ID: 0x05FF4600  DLC: 6  Data: 0x0D 0x03 0x00 0x93 0x03 0x03
[16:35:43.507] Extended ID: 0x03FF1000  DLC: 8  Data: 0x00 0x00 0x11 0x22 0x00 0x00 0x00 0x01
[16:35:43.515] Extended ID: 0x0260B606  DLC: 8  Data: 0x01 0x00 0x00 0x00 0x00 0x00 0x00 0x00
[16:35:43.520] Extended ID: 0x03FF1001  DLC: 8  Data: 0x00 0x00 0x00 0x00 0x00 0x00 0x00 0x00
[16:35:43.528] Extended ID: 0x03FF1603  DLC: 8  Data: 0x00 0x00 0xCD 0x23 0x00 0x00 0x00 0x00
[16:35:43.536] Extended ID: 0x03FF1605  DLC: 8  Data: 0x01 0x00 0x00 0x00 0x00 0x00 0x00 0x00
[16:35:43.543] Extended ID: 0x02203607  DLC: 5  Data: 0x00 0x00 0x00 0x03 0x00
[16:35:43.571] Extended ID: 0x02181606  DLC: 8  Data: 0x01 0x00 0x19 0x00 0x01 0x03 0x02 0x00
[16:35:43.600] Extended ID: 0x02203606  DLC: 8  Data: 0x01 0x01 0x00 0x01 0x00 0x01 0x00 0x00
[16:35:43.611] Extended ID: 0x03FF1000  DLC: 8  Data: 0x00 0x00 0x11 0x22 0x00 0x00 0x00 0x01
[16:35:43.621] Extended ID: 0x03FF1001  DLC: 8  Data: 0x00 0x00 0x00 0x00 0x00 0x00 0x00 0x00
[16:35:43.630] Extended ID: 0x02181608  DLC: 8  Data: 0x05 0x00 0x00 0x00 0x01 0x00 0x00 0x00
[16:35:43.635] Extended ID: 0x03FF1603  DLC: 8  Data: 0x00 0x00 0xCD 0x23 0x00 0x00 0x00 0x00
[16:35:43.644] Extended ID: 0x03FF1605  DLC: 8  Data: 0x01 0x00 0x00 0x00 0x00 0x00 0x00 0x00
[16:35:43.653] Extended ID: 0x03121606  DLC: 8  Data: 0x00 0x00 0x00 0x00 0x00 0x00 0x00 0x00
[16:35:43.662] Extended ID: 0x02181609  DLC: 8  Data: 0x00 0x00 0x00 0x00 0x00 0x00 0x00 0x00
[16:35:43.690] Extended ID: 0x02488600  DLC: 8  Data: 0x00 0x00 0x00 0x00 0x00 0x00 0x00 0x00
[16:35:43.715] Extended ID: 0x03FF1000  DLC: 8  Data: 0x00 0x00 0x11 0x22 0x00 0x00 0x00 0x01
[16:35:43.718] Extended ID: 0x02191502  DLC: 0  Data:
[16:35:43.726] Extended ID: 0x03FF1001  DLC: 8  Data: 0x00 0x00 0x00 0x00 0x00 0x00 0x00 0x00
[16:35:43.736] Extended ID: 0x03FF1603  DLC: 8  Data: 0x00 0x00 0xCD 0x23 0x00 0x00 0x00 0x00
[16:35:43.747] Extended ID: 0x03FF1605  DLC: 8  Data: 0x01 0x00 0x00 0x00 0x00 0x00 0x00 0x00
[16:35:43.758] Extended ID: 0x03FF1502  DLC: 8  Data: 0x01 0x00 0x00 0x00 0x00 0x00 0x00 0x00
[16:35:43.769] Extended ID: 0x05FF4610  DLC: 8  Data: 0x00 0x00 0xCC 0x90 0xFF 0xFF 0xFF 0x9D
[16:35:43.821] Extended ID: 0x03FF1000  DLC: 8  Data: 0x00 0x00 0x11 0x22 0x00 0x00 0x00 0x01
[16:35:43.831] Extended ID: 0x03FF1001  DLC: 8  Data: 0x00 0x00 0x00 0x00 0x00 0x00 0x00 0x00
[16:35:43.842] Extended ID: 0x03FF1603  DLC: 8  Data: 0x00 0x00 0xCD 0x23 0x00 0x00 0x00 0x00
[16:35:43.852] Extended ID: 0x03FF1605  DLC: 8  Data: 0x01 0x00 0x00 0x00 0x00 0x00 0x00 0x00
[16:35:43.890] Extended ID: 0x04FF3602  DLC: 8  Data: 0x00 0x00 0x00 0x00 0x00 0x00 0x00 0x00
[16:35:43.926] Extended ID: 0x03FF1000  DLC: 8  Data: 0x00 0x00 0x11 0x22 0x00 0x00 0x00 0x01
[16:35:43.936] Extended ID: 0x03FF1001  DLC: 8  Data: 0x00 0x00 0x00 0x00 0x00 0x00 0x00 0x00
[16:35:43.947] Extended ID: 0x03FF1603  DLC: 8  Data: 0x00 0x00 0xCD 0x23 0x00 0x00 0x00 0x00
[16:35:43.957] Extended ID: 0x03FF1605  DLC: 8  Data: 0x01 0x00 0x00 0x00 0x00 0x00 0x00 0x00
[16:35:44.030] Extended ID: 0x05FF4610  DLC: 8  Data: 0x00 0x00 0xCC 0x90 0xFF 0xFF 0xFF 0x98
[16:35:44.035] Extended ID: 0x03FF1000  DLC: 8  Data: 0x00 0x00 0x11 0x22 0x00 0x00 0x00 0x01
[16:35:44.044] Extended ID: 0x03FF1001  DLC: 8  Data: 0x00 0x00 0x00 0x00 0x00 0x00 0x00 0x00
[16:35:44.050] Extended ID: 0x03FF1603  DLC: 8  Data: 0x00 0x00 0xCD 0x23 0x00 0x00 0x00 0x00
[16:35:44.062] Extended ID: 0x03FF1605  DLC: 8  Data: 0x01 0x00 0x00 0x00 0x00 0x00 0x00 0x00
[16:35:44.136] Extended ID: 0x03FF1000  DLC: 8  Data: 0x00 0x00 0x11 0x22 0x00 0x00 0x00 0x01
[16:35:44.146] Extended ID: 0x03FF1001  DLC: 8  Data: 0x00 0x00 0x00 0x00 0x00 0x00 0x00 0x00
[16:35:44.156] Extended ID: 0x03FF1603  DLC: 8  Data: 0x00 0x00 0xCD 0x23 0x00 0x00 0x00 0x00
[16:35:44.161] Extended ID: 0x05FF4001  DLC: 8  Data: 0x00 0x00 0x00 0x00 0x00 0x00 0x00 0x00
[16:35:44.170] Extended ID: 0x05FF4000  DLC: 8  Data: 0x00 0x00 0x00 0x00 0x00 0x00 0x00 0x00
[16:35:44.175] Extended ID: 0x03FF1605  DLC: 8  Data: 0x01 0x00 0x00 0x00 0x00 0x00 0x00 0x00
[16:35:44.202] Extended ID: 0x02181606  DLC: 8  Data: 0x01 0x00 0x19 0x00 0x01 0x03 0x02 0x00
[16:35:44.207] Extended ID: 0x03FF1600  DLC: 8  Data: 0x14 0x2B 0x00 0x01 0x04 0x00 0x13 0x19
[16:35:44.220] Extended ID: 0x03FF1601  DLC: 8  Data: 0x6E 0x50 0x00 0x00 0x00 0x00 0x00 0x00
[16:35:44.229] Extended ID: 0x03FF1602  DLC: 8  Data: 0x01 0x8C 0x71 0x00 0x00 0x00 0x00 0x00
[16:35:44.235] Extended ID: 0x02203606  DLC: 8  Data: 0x01 0x01 0x00 0x01 0x00 0x01 0x00 0x00
[16:35:44.243] Extended ID: 0x03FF1604  DLC: 8  Data: 0x00 0x00 0x00 0x00 0x00 0x00 0x00 0x00
[16:35:44.249] Extended ID: 0x05FF4602  DLC: 8  Data: 0xB8 0x0F 0xB5 0x0F 0xB7 0x0F 0xB5 0x0F
[16:35:44.257] Extended ID: 0x03FF1000  DLC: 8  Data: 0x00 0x00 0x11 0x22 0x00 0x00 0x00 0x01
[16:35:44.262] Extended ID: 0x05FF4603  DLC: 8  Data: 0xB4 0x0F 0xBD 0x0F 0xBD 0x0F 0xBE 0x0F
[16:35:44.270] Extended ID: 0x02181608  DLC: 8  Data: 0x05 0x00 0x00 0x00 0x01 0x00 0x00 0x00
[16:35:44.276] Extended ID: 0x05FF4604  DLC: 8  Data: 0xC0 0x0F 0xC2 0x0F 0xC3 0x0F 0xC2 0x0F
[16:35:44.284] Extended ID: 0x03FF1603  DLC: 8  Data: 0x00 0x00 0xCD 0x23 0x00 0x00 0x00 0x00
[16:35:44.290] Extended ID: 0x05FF4605  DLC: 8  Data: 0xC4 0x0F 0x00 0x00 0x00 0x00 0x00 0x00
[16:35:44.298] Extended ID: 0x03FF1605  DLC: 8  Data: 0x01 0x00 0x00 0x00 0x00 0x00 0x00 0x00
[16:35:44.303] Extended ID: 0x03FF1001  DLC: 8  Data: 0x00 0x00 0x00 0x00 0x00 0x00 0x00 0x00
[16:35:44.309] Extended ID: 0x05FF4606  DLC: 3  Data: 0x11 0x11 0x10
[16:35:44.314] Extended ID: 0x05FF4607  DLC: 3  Data: 0x10 0x13 0x10
[16:35:44.320] Extended ID: 0x02488600  DLC: 8  Data: 0x00 0x00 0x00 0x00 0x00 0x00 0x00 0x00
[16:35:44.326] Extended ID: 0x05FF4608  DLC: 4  Data: 0x00 0x19 0x00 0x7C
[16:35:44.333] Extended ID: 0x05FF4609  DLC: 7  Data: 0x03 0x00 0x03 0x52 0x03 0xD4 0x00
[16:35:44.345] Extended ID: 0x03FF1000  DLC: 8  Data: 0x00 0x00 0x11 0x22 0x00 0x00 0x00 0x01
[16:35:44.348] Extended ID: 0x02191503  DLC: 0  Data:
[16:35:44.356] Extended ID: 0x03FF1001  DLC: 8  Data: 0x00 0x00 0x00 0x00 0x00 0x00 0x00 0x00
[16:35:44.366] Extended ID: 0x03FF1603  DLC: 8  Data: 0x00 0x00 0xCD 0x23 0x00 0x00 0x00 0x00
[16:35:44.377] Extended ID: 0x03FF1605  DLC: 8  Data: 0x01 0x00 0x00 0x00 0x00 0x00 0x00 0x00
[16:35:44.387] Extended ID: 0x03FF1503  DLC: 8  Data: 0x01 0x00 0x00 0x00 0x00 0x00 0x00 0x00
[16:35:44.392] Extended ID: 0x04FF3602  DLC: 8  Data: 0x00 0x00 0x00 0x00 0x00 0x00 0x00 0x00
[16:35:44.431] Extended ID: 0x02FF2605  DLC: 8  Data: 0x00 0x00 0x05 0x01 0x07 0x06 0x05 0x00
[16:35:44.451] Extended ID: 0x03FF1000  DLC: 8  Data: 0x00 0x00 0x11 0x22 0x00 0x00 0x00 0x01
[16:35:44.460] Extended ID: 0x02FF2604  DLC: 8  Data: 0x00 0x00 0x00 0x00 0x00 0x00 0x00 0x00
[16:35:44.466] Extended ID: 0x03FF1001  DLC: 8  Data: 0x00 0x00 0x00 0x00 0x00 0x00 0x00 0x00
[16:35:44.475] Extended ID: 0x03FF1603  DLC: 8  Data: 0x00 0x00 0xCD 0x23 0x00 0x00 0x00 0x00
[16:35:44.480] Extended ID: 0x03FF1605  DLC: 8  Data: 0x01 0x00 0x00 0x00 0x00 0x00 0x00 0x00
[16:35:44.491] Extended ID: 0x02FF2704  DLC: 8  Data: 0x02 0x00 0x00 0x00 0x00 0x00 0x00 0x00
[16:35:44.521] Extended ID: 0x0260B606  DLC: 8  Data: 0x01 0x00 0x00 0x00 0x00 0x00 0x00 0x00
[16:35:44.550] Extended ID: 0x02203607  DLC: 5  Data: 0x00 0x00 0x00 0x03 0x00
[16:35:44.556] Extended ID: 0x05FF4610  DLC: 8  Data: 0x00 0x00 0xCC 0x90 0xFF 0xFF 0xFF 0x98
[16:35:44.564] Extended ID: 0x03FF1000  DLC: 8  Data: 0x00 0x00 0x11 0x22 0x00 0x00 0x00 0x01
[16:35:44.569] Extended ID: 0x03FF1001  DLC: 8  Data: 0x00 0x00 0x00 0x00 0x00 0x00 0x00 0x00
[16:35:44.577] Extended ID: 0x03FF1603  DLC: 8  Data: 0x00 0x00 0xCD 0x23 0x00 0x00 0x00 0x00
[16:35:44.587] Extended ID: 0x03FF1605  DLC: 8  Data: 0x01 0x00 0x00 0x00 0x00 0x00 0x00 0x00
[16:35:44.661] Extended ID: 0x03FF1000  DLC: 8  Data: 0x00 0x00 0x11 0x22 0x00 0x00 0x00 0x01
[16:35:44.671] Extended ID: 0x03FF1001  DLC: 8  Data: 0x00 0x00 0x00 0x00 0x00 0x00 0x00 0x00
[16:35:44.682] Extended ID: 0x03FF1603  DLC: 8  Data: 0x00 0x00 0xCD 0x23 0x00 0x00 0x00 0x00
[16:35:44.692] Extended ID: 0x03FF1605  DLC: 8  Data: 0x01 0x00 0x00 0x00 0x00 0x00 0x00 0x00
[16:35:44.765] Extended ID: 0x03FF1000  DLC: 8  Data: 0x00 0x00 0x11 0x22 0x00 0x00 0x00 0x01
[16:35:44.776] Extended ID: 0x03FF1001  DLC: 8  Data: 0x00 0x00 0x00 0x00 0x00 0x00 0x00 0x00
[16:35:44.787] Extended ID: 0x03FF1603  DLC: 8  Data: 0x00 0x00 0xCD 0x23 0x00 0x00 0x00 0x00
[16:35:44.797] Extended ID: 0x03FF1605  DLC: 8  Data: 0x01 0x00 0x00 0x00 0x00 0x00 0x00 0x00
[16:35:44.841] Extended ID: 0x05FF4610  DLC: 8  Data: 0x00 0x00 0xCC 0x8F 0xFF 0xFF 0xFF 0x9D
[16:35:44.870] Extended ID: 0x03FF1000  DLC: 8  Data: 0x00 0x00 0x11 0x22 0x00 0x00 0x00 0x01
[16:35:44.875] Extended ID: 0x02F82400  DLC: 8  Data: 0xF9 0x00 0x00 0x00 0x00 0x00 0x00 0x00
[16:35:44.884] Extended ID: 0x03FF1001  DLC: 8  Data: 0x00 0x00 0x00 0x00 0x00 0x00 0x00 0x00
[16:35:44.889] Extended ID: 0x03FF1603  DLC: 8  Data: 0x00 0x00 0xCD 0x23 0x00 0x00 0x00 0x00
[16:35:44.898] Extended ID: 0x04FF3602  DLC: 8  Data: 0x00 0x00 0x00 0x00 0x00 0x00 0x00 0x00
[16:35:44.903] Extended ID: 0x02FF2602  DLC: 8  Data: 0xC3 0xCF 0x0A 0x77 0x13 0x58 0xAE 0xCB
[16:35:44.912] Extended ID: 0x03FF1605  DLC: 8  Data: 0x01 0x00 0x00 0x00 0x00 0x00 0x00 0x00
[16:35:44.961] Extended ID: 0x02181606  DLC: 8  Data: 0x01 0x00 0x19 0x00 0x01 0x03 0x02 0x00
[16:35:44.976] Extended ID: 0x03FF1000  DLC: 8  Data: 0x00 0x00 0x11 0x22 0x00 0x00 0x00 0x01
[16:35:44.985] Extended ID: 0x03FF1001  DLC: 8  Data: 0x00 0x00 0x00 0x00 0x00 0x00 0x00 0x00
[16:35:44.991] Extended ID: 0x02203606  DLC: 8  Data: 0x01 0x01 0x00 0x01 0x00 0x01 0x00 0x00
[16:35:45.000] Extended ID: 0x03FF1603  DLC: 8  Data: 0x00 0x00 0xCD 0x23 0x00 0x00 0x00 0x00
[16:35:45.005] Extended ID: 0x03FF1605  DLC: 8  Data: 0x01 0x00 0x00 0x00 0x00 0x00 0x00 0x00
[16:35:45.018] Extended ID: 0x03121606  DLC: 8  Data: 0x00 0x00 0x00 0x00 0x00 0x00 0x00 0x00
[16:35:45.031] Extended ID: 0x02181608  DLC: 8  Data: 0x05 0x00 0x00 0x00 0x01 0x00 0x00 0x00
[16:35:45.062] Extended ID: 0x02181609  DLC: 8  Data: 0x00 0x00 0x00 0x00 0x00 0x00 0x00 0x00
[16:35:45.081] Extended ID: 0x03FF1000  DLC: 8  Data: 0x00 0x00 0x11 0x22 0x00 0x00 0x00 0x01
[16:35:45.090] Extended ID: 0x03FF1001  DLC: 8  Data: 0x00 0x00 0x00 0x00 0x00 0x00 0x00 0x00
[16:35:45.096] Extended ID: 0x02488600  DLC: 8  Data: 0x00 0x00 0x00 0x00 0x00 0x00 0x00 0x00
[16:35:45.104] Extended ID: 0x05FF4610  DLC: 8  Data: 0x00 0x00 0xCC 0x8F 0xFF 0xFF 0xFF 0x9D
[16:35:45.110] Extended ID: 0x03FF1603  DLC: 8  Data: 0x00 0x00 0xCD 0x23 0x00 0x00 0x00 0x00
[16:35:45.118] Extended ID: 0x03FF1605  DLC: 8  Data: 0x01 0x00 0x00 0x00 0x00 0x00 0x00 0x00
[16:35:45.122] Extended ID: 0x02191504  DLC: 0  Data:
[16:35:45.138] Extended ID: 0x03FF1504  DLC: 8  Data: 0x00 0x00 0x00 0x4F 0x00 0x00 0x00 0x00ECU: 4F
[16:35:45.185] Extended ID: 0x03FF1000  DLC: 8  Data: 0x00 0x00 0x11 0x22 0x00 0x00 0x00 0x01
[16:35:45.190] Extended ID: 0x05FF4001  DLC: 8  Data: 0x00 0x00 0x00 0x00 0x00 0x00 0x00 0x00
[16:35:45.199] Extended ID: 0x05FF4000  DLC: 8  Data: 0x00 0x00 0x00 0x00 0x00 0x00 0x00 0x00
[16:35:45.204] Extended ID: 0x03FF1001  DLC: 8  Data: 0x00 0x00 0x00 0x00 0x00 0x00 0x00 0x00
[16:35:45.212] Extended ID: 0x03FF1603  DLC: 8  Data: 0x00 0x00 0xCD 0x23 0x00 0x00 0x00 0x00
[16:35:45.218] Extended ID: 0x03FF1605  DLC: 8  Data: 0x01 0x00 0x00 0x00 0x00 0x00 0x00 0x00
[16:35:45.227] Extended ID: 0x03FF1600  DLC: 8  Data: 0x14 0x2B 0x00 0x01 0x04 0x00 0x13 0x19
[16:35:45.238] Extended ID: 0x03FF1601  DLC: 8  Data: 0x6E 0x50 0x00 0x00 0x00 0x00 0x00 0x00
[16:35:45.248] Extended ID: 0x03FF1602  DLC: 8  Data: 0x01 0x8C 0x71 0x00 0x00 0x00 0x00 0x00
[16:35:45.259] Extended ID: 0x03FF1604  DLC: 8  Data: 0x00 0x00 0x00 0x00 0x00 0x00 0x00 0x00
[16:35:45.271] Extended ID: 0x05FF4602  DLC: 8  Data: 0xB7 0x0F 0xB5 0x0F 0xB7 0x0F 0xB5 0x0F
[16:35:45.281] Extended ID: 0x05FF4603  DLC: 8  Data: 0xB5 0x0F 0xBD 0x0F 0xBD 0x0F 0xBE 0x0F
[16:35:45.290] Extended ID: 0x03FF1000  DLC: 8  Data: 0x00 0x00 0x11 0x22 0x00 0x00 0x00 0x01
[16:35:45.295] Extended ID: 0x05FF4604  DLC: 8  Data: 0xC0 0x0F 0xC1 0x0F 0xC3 0x0F 0xC3 0x0F
[16:35:45.304] Extended ID: 0x05FF4605  DLC: 8  Data: 0xC3 0x0F 0x00 0x00 0x00 0x00 0x00 0x00
[16:35:45.309] Extended ID: 0x03FF1001  DLC: 8  Data: 0x00 0x00 0x00 0x00 0x00 0x00 0x00 0x00
[16:35:45.317] Extended ID: 0x03FF1603  DLC: 8  Data: 0x00 0x00 0xCD 0x23 0x00 0x00 0x00 0x00
[16:35:45.323] Extended ID: 0x03FF1605  DLC: 8  Data: 0x01 0x00 0x00 0x00 0x00 0x00 0x00 0x00
[16:35:45.329] Extended ID: 0x05FF4606  DLC: 3  Data: 0x11 0x11 0x10
[16:35:45.338] Extended ID: 0x05FF4607  DLC: 3  Data: 0x10 0x13 0x10
[16:35:45.349] Extended ID: 0x05FF4608  DLC: 4  Data: 0x00 0x19 0x00 0x7C
[16:35:45.360] Extended ID: 0x05FF4609  DLC: 7  Data: 0x03 0x00 0x03 0x52 0x03 0xD4 0x00
[16:35:45.367] Extended ID: 0x05FF4610  DLC: 8  Data: 0x00 0x00 0xCC 0x8F 0xFF 0xFF 0xFF 0x9D
[16:35:45.395] Extended ID: 0x03FF1000  DLC: 8  Data: 0x00 0x00 0x11 0x22 0x00 0x00 0x00 0x01
[16:35:45.400] Extended ID: 0x04FF3602  DLC: 8  Data: 0x00 0x00 0x00 0x00 0x00 0x00 0x00 0x00
[16:35:45.409] Extended ID: 0x03FF1001  DLC: 8  Data: 0x00 0x00 0x00 0x00 0x00 0x00 0x00 0x00
[16:35:45.415] Extended ID: 0x03FF1603  DLC: 8  Data: 0x00 0x00 0xCD 0x23 0x00 0x00 0x00 0x00
[16:35:45.427] Extended ID: 0x03FF1605  DLC: 8  Data: 0x01 0x00 0x00 0x00 0x00 0x00 0x00 0x00
[16:35:45.442] Extended ID: 0x02FF2605  DLC: 8  Data: 0x00 0x00 0x05 0x01 0x07 0x06 0x05 0x01
[16:35:45.472] Extended ID: 0x02FF2604  DLC: 8  Data: 0x00 0x00 0x00 0x00 0x00 0x00 0x00 0x00
[16:35:45.500] Extended ID: 0x03FF1000  DLC: 8  Data: 0x00 0x00 0x11 0x22 0x00 0x00 0x00 0x01
[16:35:45.505] Extended ID: 0x02FF2704  DLC: 8  Data: 0x02 0x00 0x00 0x00 0x00 0x00 0x00 0x00
[16:35:45.514] Extended ID: 0x03FF1001  DLC: 8  Data: 0x00 0x00 0x00 0x00 0x00 0x00 0x00 0x00
[16:35:45.519] Extended ID: 0x03FF1603  DLC: 8  Data: 0x00 0x00 0xCD 0x23 0x00 0x00 0x00 0x00
[16:35:45.531] Extended ID: 0x0260B606  DLC: 8  Data: 0x01 0x00 0x00 0x00 0x00 0x00 0x00 0x00
[16:35:45.537] Extended ID: 0x03FF1605  DLC: 8  Data: 0x01 0x00 0x00 0x00 0x00 0x00 0x00 0x00
[16:35:45.560] Extended ID: 0x02203607  DLC: 5  Data: 0x00 0x00 0x00 0x03 0x00
[16:35:45.605] Extended ID: 0x03FF1000  DLC: 8  Data: 0x00 0x00 0x11 0x22 0x00 0x00 0x00 0x01
[16:35:45.615] Extended ID: 0x03FF1001  DLC: 8  Data: 0x00 0x00 0x00 0x00 0x00 0x00 0x00 0x00
[16:35:45.621] Extended ID: 0x05FF4610  DLC: 8  Data: 0x00 0x00 0xCC 0x8F 0xFF 0xFF 0xFF 0x9D
[16:35:45.630] Extended ID: 0x03FF1603  DLC: 8  Data: 0x00 0x00 0xCD 0x23 0x00 0x00 0x00 0x00
[16:35:45.635] Extended ID: 0x03FF1605  DLC: 8  Data: 0x01 0x00 0x00 0x00 0x00 0x00 0x00 0x00
[16:35:45.710] Extended ID: 0x03FF1000  DLC: 8  Data: 0x00 0x00 0x11 0x22 0x00 0x00 0x00 0x01
[16:35:45.720] Extended ID: 0x03FF1001  DLC: 8  Data: 0x00 0x00 0x00 0x00 0x00 0x00 0x00 0x00
[16:35:45.726] Extended ID: 0x02181606  DLC: 8  Data: 0x01 0x00 0x19 0x00 0x01 0x03 0x02 0x00
[16:35:45.734] Extended ID: 0x03FF1603  DLC: 8  Data: 0x00 0x00 0xCD 0x23 0x00 0x00 0x00 0x00
[16:35:45.740] Extended ID: 0x03FF1605  DLC: 8  Data: 0x01 0x00 0x00 0x00 0x00 0x00 0x00 0x00
[16:35:45.752] Extended ID: 0x02203606  DLC: 8  Data: 0x01 0x01 0x00 0x01 0x00 0x01 0x00 0x00
[16:35:45.782] Extended ID: 0x02181608  DLC: 8  Data: 0x05 0x00 0x00 0x00 0x01 0x00 0x00 0x00
[16:35:45.811] Extended ID: 0x02181609  DLC: 8  Data: 0x00 0x00 0x00 0x00 0x00 0x00 0x00 0x00
[16:35:45.817] Extended ID: 0x03FF1000  DLC: 8  Data: 0x00 0x00 0x11 0x22 0x00 0x00 0x00 0x01
[16:35:45.826] Extended ID: 0x03FF1001  DLC: 8  Data: 0x00 0x00 0x00 0x00 0x00 0x00 0x00 0x00
[16:35:45.836] Extended ID: 0x03FF1603  DLC: 8  Data: 0x00 0x00 0xCD 0x23 0x00 0x00 0x00 0x00
[16:35:45.841] Extended ID: 0x02488600  DLC: 8  Data: 0x00 0x00 0x00 0x00 0x00 0x00 0x00 0x00
[16:35:45.850] Extended ID: 0x03FF1605  DLC: 8  Data: 0x01 0x00 0x00 0x00 0x00 0x00 0x00 0x00
[16:35:45.856] Extended ID: 0x03121606  DLC: 8  Data: 0x00 0x00 0x00 0x00 0x00 0x00 0x00 0x00
[16:35:45.869] Extended ID: 0x02213502  DLC: 0  Data:
[16:35:45.904] Extended ID: 0x04FF3602  DLC: 8  Data: 0x00 0x00 0x00 0x00 0x00 0x00 0x00 0x00
[16:35:45.910] Extended ID: 0x05FF4610  DLC: 8  Data: 0x00 0x00 0xCC 0x8D 0xFF 0xFF 0xFF 0x98
[16:35:45.920] Extended ID: 0x03FF1000  DLC: 8  Data: 0x00 0x00 0x11 0x22 0x00 0x00 0x00 0x01
[16:35:45.931] Extended ID: 0x03FF1001  DLC: 8  Data: 0x00 0x00 0x00 0x00 0x00 0x00 0x00 0x00
[16:35:45.941] Extended ID: 0x03FF1603  DLC: 8  Data: 0x00 0x00 0xCD 0x23 0x00 0x00 0x00 0x00
[16:35:45.952] Extended ID: 0x03FF1605  DLC: 8  Data: 0x01 0x00 0x00 0x00 0x00 0x00 0x00 0x00
[16:35:46.025] Extended ID: 0x03FF1000  DLC: 8  Data: 0x00 0x00 0x11 0x22 0x00 0x00 0x00 0x01
[16:35:46.036] Extended ID: 0x03FF1001  DLC: 8  Data: 0x00 0x00 0x00 0x00 0x00 0x00 0x00 0x00
[16:35:46.046] Extended ID: 0x03FF1603  DLC: 8  Data: 0x00 0x00 0xCD 0x23 0x00 0x00 0x00 0x00
[16:35:46.057] Extended ID: 0x03FF1605  DLC: 8  Data: 0x01 0x00 0x00 0x00 0x00 0x00 0x00 0x00
[16:35:46.130] Extended ID: 0x03FF1000  DLC: 8  Data: 0x00 0x00 0x11 0x22 0x00 0x00 0x00 0x01
[16:35:46.141] Extended ID: 0x03FF1001  DLC: 8  Data: 0x00 0x00 0x00 0x00 0x00 0x00 0x00 0x00
[16:35:46.151] Extended ID: 0x03FF1603  DLC: 8  Data: 0x00 0x00 0xCD 0x23 0x00 0x00 0x00 0x00
[16:35:46.163] Extended ID: 0x03FF1605  DLC: 8  Data: 0x01 0x00 0x00 0x00 0x00 0x00 0x00 0x00
[16:35:46.168] Extended ID: 0x05FF4610  DLC: 8  Data: 0x00 0x00 0xCC 0x8D 0xFF 0xFF 0xFF 0x98
[16:35:46.215] Extended ID: 0x05FF4001  DLC: 8  Data: 0x00 0x00 0x00 0x00 0x00 0x00 0x00 0x00
[16:35:46.220] Extended ID: 0x05FF4000  DLC: 8  Data: 0x00 0x00 0x00 0x00 0x00 0x00 0x00 0x00
[16:35:46.228] Extended ID: 0x03FF1600  DLC: 8  Data: 0x14 0x2B 0x00 0x01 0x04 0x00 0x13 0x19
[16:35:46.234] Extended ID: 0x03FF1601  DLC: 8  Data: 0x6E 0x50 0x00 0x00 0x00 0x00 0x00 0x00
[16:35:46.246] Extended ID: 0x03FF1602  DLC: 8  Data: 0x01 0x8C 0x71 0x00 0x00 0x00 0x00 0x00
[16:35:46.256] Extended ID: 0x03FF1604  DLC: 8  Data: 0x00 0x00 0x00 0x00 0x00 0x00 0x00 0x00
[16:35:46.267] Extended ID: 0x03FF1000  DLC: 8  Data: 0x00 0x00 0x11 0x22 0x00 0x00 0x00 0x01
[16:35:46.277] Extended ID: 0x03FF1001  DLC: 8  Data: 0x00 0x00 0x00 0x00 0x00 0x00 0x00 0x00
[16:35:46.288] Extended ID: 0x03FF1603  DLC: 8  Data: 0x00 0x00 0xCD 0x23 0x00 0x00 0x00 0x00
[16:35:46.297] Extended ID: 0x05FF4602  DLC: 8  Data: 0xB7 0x0F 0xB5 0x0F 0xB7 0x0F 0xB5 0x0F
[16:35:46.302] Extended ID: 0x03FF1605  DLC: 8  Data: 0x01 0x00 0x00 0x00 0x00 0x00 0x00 0x00
[16:35:46.310] Extended ID: 0x05FF4603  DLC: 8  Data: 0xB4 0x0F 0xBD 0x0F 0xBD 0x0F 0xBE 0x0F
[16:35:46.316] Extended ID: 0x05FF4604  DLC: 8  Data: 0xBF 0x0F 0xC1 0x0F 0xC3 0x0F 0xC2 0x0F
[16:35:46.327] Extended ID: 0x05FF4605  DLC: 8  Data: 0xC4 0x0F 0x00 0x00 0x00 0x00 0x00 0x00
[16:35:46.340] Extended ID: 0x03FF1000  DLC: 8  Data: 0x00 0x00 0x11 0x22 0x00 0x00 0x00 0x01
[16:35:46.351] Extended ID: 0x03FF1001  DLC: 8  Data: 0x00 0x00 0x00 0x00 0x00 0x00 0x00 0x00
[16:35:46.356] Extended ID: 0x05FF4606  DLC: 3  Data: 0x11 0x11 0x10
[16:35:46.361] Extended ID: 0x03FF1603  DLC: 8  Data: 0x00 0x00 0xCD 0x23 0x00 0x00 0x00 0x00
[16:35:46.367] Extended ID: 0x05FF4607  DLC: 3  Data: 0x10 0x13 0x10
[16:35:46.372] Extended ID: 0x03FF1605  DLC: 8  Data: 0x01 0x00 0x00 0x00 0x00 0x00 0x00 0x00
[16:35:46.379] Extended ID: 0x05FF4608  DLC: 4  Data: 0x00 0x19 0x00 0x7C
[16:35:46.388] Extended ID: 0x05FF4609  DLC: 7  Data: 0x03 0x00 0x03 0x52 0x03 0xD4 0x00
[16:35:46.409] Extended ID: 0x04FF3602  DLC: 8  Data: 0x00 0x00 0x00 0x00 0x00 0x00 0x00 0x00
[16:35:46.432] Extended ID: 0x05FF4610  DLC: 8  Data: 0x00 0x00 0xCC 0x8D 0xFF 0xFF 0xFF 0x98
[16:35:46.445] Extended ID: 0x03FF1000  DLC: 8  Data: 0x00 0x00 0x11 0x22 0x00 0x00 0x00 0x01
[16:35:46.451] Extended ID: 0x02FF2605  DLC: 8  Data: 0x00 0x00 0x05 0x01 0x07 0x06 0x05 0x02
[16:35:46.459] Extended ID: 0x03FF1001  DLC: 8  Data: 0x00 0x00 0x00 0x00 0x00 0x00 0x00 0x00
[16:35:46.465] Extended ID: 0x03FF1603  DLC: 8  Data: 0x00 0x00 0xCD 0x23 0x00 0x00 0x00 0x00
[16:35:46.476] Extended ID: 0x03FF1605  DLC: 8  Data: 0x01 0x00 0x00 0x00 0x00 0x00 0x00 0x00
[16:35:46.482] Extended ID: 0x02FF2604  DLC: 8  Data: 0x00 0x00 0x00 0x00 0x00 0x00 0x00 0x00
[16:35:46.513] Extended ID: 0x02FF2704  DLC: 8  Data: 0x02 0x00 0x00 0x00 0x00 0x00 0x00 0x00
[16:35:46.543] Extended ID: 0x0260B606  DLC: 8  Data: 0x01 0x00 0x00 0x00 0x00 0x00 0x00 0x00
[16:35:46.548] Extended ID: 0x03FF1000  DLC: 8  Data: 0x00 0x00 0x11 0x22 0x00 0x00 0x00 0x01
[16:35:46.561] Extended ID: 0x03FF1001  DLC: 8  Data: 0x00 0x00 0x00 0x00 0x00 0x00 0x00 0x00
[16:35:46.571] Extended ID: 0x03FF1603  DLC: 8  Data: 0x00 0x00 0xCD 0x23 0x00 0x00 0x00 0x00
[16:35:46.576] Extended ID: 0x02203607  DLC: 5  Data: 0x00 0x00 0x00 0x03 0x00
[16:35:46.584] Extended ID: 0x03FF1605  DLC: 8  Data: 0x01 0x00 0x00 0x00 0x00 0x00 0x00 0x00
[16:35:46.603] Extended ID: 0x02181606  DLC: 8  Data: 0x01 0x00 0x19 0x00 0x01 0x03 0x02 0x00
[16:35:46.633] Extended ID: 0x02203606  DLC: 8  Data: 0x01 0x01 0x00 0x01 0x00 0x01 0x00 0x00
[16:35:46.656] Extended ID: 0x03FF1000  DLC: 8  Data: 0x00 0x00 0x11 0x22 0x00 0x00 0x00 0x01
[16:35:46.661] Extended ID: 0x02181608  DLC: 8  Data: 0x05 0x00 0x00 0x00 0x01 0x00 0x00 0x00
[16:35:46.669] Extended ID: 0x03FF1001  DLC: 8  Data: 0x00 0x00 0x00 0x00 0x00 0x00 0x00 0x00
[16:35:46.675] Extended ID: 0x03FF1603  DLC: 8  Data: 0x00 0x00 0xCD 0x23 0x00 0x00 0x00 0x00
[16:35:46.686] Extended ID: 0x03FF1605  DLC: 8  Data: 0x01 0x00 0x00 0x00 0x00 0x00 0x00 0x00
[16:35:46.692] Extended ID: 0x02181609  DLC: 8  Data: 0x00 0x00 0x00 0x00 0x00 0x00 0x00 0x00
[16:35:46.701] Extended ID: 0x03121606  DLC: 8  Data: 0x00 0x00 0x00 0x00 0x00 0x00 0x00 0x00
[16:35:46.718] Extended ID: 0x05FF4610  DLC: 8  Data: 0x00 0x00 0xCC 0x8C 0xFF 0xFF 0xFF 0x98
[16:35:46.724] Extended ID: 0x02488600  DLC: 8  Data: 0x00 0x00 0x00 0x00 0x00 0x00 0x00 0x00
[16:35:46.749] Extended ID: 0x02213503  DLC: 0  Data:
[16:35:46.761] Extended ID: 0x03FF1000  DLC: 8  Data: 0x00 0x00 0x11 0x22 0x00 0x00 0x00 0x01
[16:35:46.771] Extended ID: 0x03FF1001  DLC: 8  Data: 0x00 0x00 0x00 0x00 0x00 0x00 0x00 0x00
[16:35:46.781] Extended ID: 0x03FF1603  DLC: 8  Data: 0x00 0x00 0xCD 0x23 0x00 0x00 0x00 0x00
[16:35:46.792] Extended ID: 0x03FF1605  DLC: 8  Data: 0x01 0x00 0x00 0x00 0x00 0x00 0x00 0x00
[16:35:46.866] Extended ID: 0x03FF1000  DLC: 8  Data: 0x00 0x00 0x11 0x22 0x00 0x00 0x00 0x01
[16:35:46.876] Extended ID: 0x03FF1001  DLC: 8  Data: 0x00 0x00 0x00 0x00 0x00 0x00 0x00 0x00
[16:35:46.886] Extended ID: 0x03FF1603  DLC: 8  Data: 0x00 0x00 0xCD 0x23 0x00 0x00 0x00 0x00
[16:35:46.897] Extended ID: 0x03FF1605  DLC: 8  Data: 0x01 0x00 0x00 0x00 0x00 0x00 0x00 0x00
[16:35:46.912] Extended ID: 0x04FF3602  DLC: 8  Data: 0x00 0x00 0x00 0x00 0x00 0x00 0x00 0x00
[16:35:46.970] Extended ID: 0x03FF1000  DLC: 8  Data: 0x00 0x00 0x11 0x22 0x00 0x00 0x00 0x01
[16:35:46.980] Extended ID: 0x05FF4610  DLC: 8  Data: 0x00 0x00 0xCC 0x8C 0xFF 0xFF 0xFF 0x92
[16:35:46.985] Extended ID: 0x03FF1001  DLC: 8  Data: 0x00 0x00 0x00 0x00 0x00 0x00 0x00 0x00
[16:35:46.995] Extended ID: 0x03FF1603  DLC: 8  Data: 0x00 0x00 0xCD 0x23 0x00 0x00 0x00 0x00
[16:35:47.000] Extended ID: 0x03FF1605  DLC: 8  Data: 0x01 0x00 0x00 0x00 0x00 0x00 0x00 0x00
[16:35:47.075] Extended ID: 0x03FF1000  DLC: 8  Data: 0x00 0x00 0x11 0x22 0x00 0x00 0x00 0x01
[16:35:47.086] Extended ID: 0x03FF1001  DLC: 8  Data: 0x00 0x00 0x00 0x00 0x00 0x00 0x00 0x00
[16:35:47.096] Extended ID: 0x03FF1603  DLC: 8  Data: 0x00 0x00 0xCD 0x23 0x00 0x00 0x00 0x00
[16:35:47.107] Extended ID: 0x03FF1605  DLC: 8  Data: 0x01 0x00 0x00 0x00 0x00 0x00 0x00 0x00
[16:35:47.180] Extended ID: 0x03FF1000  DLC: 8  Data: 0x00 0x00 0x11 0x22 0x00 0x00 0x00 0x01
[16:35:47.191] Extended ID: 0x03FF1001  DLC: 8  Data: 0x00 0x00 0x00 0x00 0x00 0x00 0x00 0x00
[16:35:47.201] Extended ID: 0x03FF1400  DLC: 8  Data: 0x00 0x00 0x00 0x16 0x00 0x00 0x00 0x00
[16:35:47.212] Extended ID: 0x03FF1603  DLC: 8  Data: 0x00 0x00 0xCD 0x23 0x00 0x00 0x00 0x00
[16:35:47.222] Extended ID: 0x03FF1605  DLC: 8  Data: 0x01 0x00 0x00 0x00 0x00 0x00 0x00 0x00
[16:35:47.234] Extended ID: 0x03FF1600  DLC: 8  Data: 0x14 0x2B 0x00 0x01 0x04 0x00 0x13 0x19
[16:35:47.239] Extended ID: 0x05FF4610  DLC: 8  Data: 0x00 0x00 0xCC 0x8C 0xFF 0xFF 0xFF 0x92
[16:35:47.247] Extended ID: 0x05FF4001  DLC: 8  Data: 0x00 0x00 0x00 0x00 0x00 0x00 0x00 0x00
[16:35:47.253] Extended ID: 0x02181606  DLC: 8  Data: 0x01 0x00 0x19 0x00 0x01 0x03 0x02 0x00
[16:35:47.261] Extended ID: 0x05FF4000  DLC: 8  Data: 0x00 0x00 0x00 0x00 0x00 0x00 0x00 0x00
[16:35:47.266] Extended ID: 0x03FF1602  DLC: 8  Data: 0x01 0x8C 0x71 0x00 0x00 0x00 0x00 0x00
[16:35:47.275] Extended ID: 0x03FF1604  DLC: 8  Data: 0x00 0x00 0x00 0x00 0x00 0x00 0x00 0x00
[16:35:47.280] Extended ID: 0x02203606  DLC: 8  Data: 0x01 0x01 0x00 0x01 0x00 0x01 0x00 0x00
[16:35:47.288] Extended ID: 0x03FF1601  DLC: 8  Data: 0x6E 0x50 0x00 0x00 0x00 0x00 0x00 0x00
[16:35:47.294] Extended ID: 0x03FF1000  DLC: 8  Data: 0x00 0x00 0x11 0x22 0x00 0x00 0x00 0x01
[16:35:47.302] Extended ID: 0x03FF1001  DLC: 8  Data: 0x00 0x00 0x00 0x00 0x00 0x00 0x00 0x00
[16:35:47.307] Extended ID: 0x02181608  DLC: 8  Data: 0x05 0x00 0x00 0x00 0x01 0x00 0x00 0x00
[16:35:47.316] Extended ID: 0x03FF1603  DLC: 8  Data: 0x00 0x00 0xCD 0x23 0x00 0x00 0x00 0x00
[16:35:47.321] Extended ID: 0x03FF1605  DLC: 8  Data: 0x01 0x00 0x00 0x00 0x00 0x00 0x00 0x00
[16:35:47.329] Extended ID: 0x05FF4602  DLC: 8  Data: 0xB7 0x0F 0xB5 0x0F 0xB7 0x0F 0xB5 0x0F
[16:35:47.335] Extended ID: 0x03121606  DLC: 8  Data: 0x00 0x00 0x00 0x00 0x00 0x00 0x00 0x00
[16:35:47.343] Extended ID: 0x02181609  DLC: 8  Data: 0x00 0x00 0x00 0x00 0x00 0x00 0x00 0x00
[16:35:47.348] Extended ID: 0x05FF4604  DLC: 8  Data: 0xBF 0x0F 0xC1 0x0F 0xC3 0x0F 0xC2 0x0F
[16:35:47.356] Extended ID: 0x05FF4603  DLC: 8  Data: 0xB4 0x0F 0xBD 0x0F 0xBD 0x0F 0xBE 0x0F
[16:35:47.362] Extended ID: 0x05FF4605  DLC: 8  Data: 0xC3 0x0F 0x00 0x00 0x00 0x00 0x00 0x00
[16:35:47.371] Extended ID: 0x02488600  DLC: 8  Data: 0x00 0x00 0x00 0x00 0x00 0x00 0x00 0x00
[16:35:47.382] Extended ID: 0x05FF4606  DLC: 3  Data: 0x11 0x11 0x10
[16:35:47.391] Extended ID: 0x03FF1000  DLC: 8  Data: 0x00 0x00 0x11 0x22 0x00 0x00 0x00 0x01
[16:35:47.393] Extended ID: 0x02213504  DLC: 0  Data:
[16:35:47.399] Extended ID: 0x05FF4607  DLC: 3  Data: 0x10 0x13 0x10
[16:35:47.404] Extended ID: 0x03FF1001  DLC: 8  Data: 0x00 0x00 0x00 0x00 0x00 0x00 0x00 0x00
[16:35:47.410] Extended ID: 0x05FF4608  DLC: 4  Data: 0x00 0x19 0x00 0x7C
[16:35:47.418] Extended ID: 0x03FF1603  DLC: 8  Data: 0x00 0x00 0xCD 0x23 0x00 0x00 0x00 0x00
[16:35:47.423] Extended ID: 0x05FF4609  DLC: 7  Data: 0x03 0x00 0x03 0x52 0x03 0xD4 0x00
[16:35:47.429] Extended ID: 0x04FF3602  DLC: 8  Data: 0x00 0x00 0x00 0x00 0x00 0x00 0x00 0x00
[16:35:47.437] Extended ID: 0x04FF3400  DLC: 8  Data: 0x00 0x00 0x00 0x28 0x00 0x00 0x00 0x00
[16:35:47.464] Extended ID: 0x02FF2605  DLC: 8  Data: 0x00 0x00 0x05 0x01 0x07 0x06 0x05 0x03
[16:35:47.493] Extended ID: 0x02FF2604  DLC: 8  Data: 0x00 0x00 0x00 0x00 0x00 0x00 0x00 0x00
[16:35:47.499] Extended ID: 0x03FF1000  DLC: 8  Data: 0x00 0x00 0x11 0x22 0x00 0x00 0x00 0x01
[16:35:47.507] Extended ID: 0x05FF4610  DLC: 8  Data: 0x00 0x00 0xCC 0x8C 0xFF 0xFF 0xFF 0x92
[16:35:47.512] Extended ID: 0x03FF1001  DLC: 8  Data: 0x00 0x00 0x00 0x00 0x00 0x00 0x00 0x00
[16:35:47.520] Extended ID: 0x03FF1603  DLC: 8  Data: 0x00 0x00 0xCD 0x23 0x00 0x00 0x00 0x00
[16:35:47.526] Extended ID: 0x02FF2704  DLC: 8  Data: 0x02 0x00 0x00 0x00 0x00 0x00 0x00 0x00
[16:35:47.535] Extended ID: 0x03FF1605  DLC: 8  Data: 0x01 0x00 0x00 0x00 0x00 0x00 0x00 0x00
[16:35:47.554] Extended ID: 0x0260B606  DLC: 8  Data: 0x01 0x00 0x00 0x00 0x00 0x00 0x00 0x00
[16:35:47.583] Extended ID: 0x02203607  DLC: 5  Data: 0x00 0x00 0x00 0x03 0x00
[16:35:47.600] Extended ID: 0x03FF1000  DLC: 8  Data: 0x00 0x00 0x11 0x22 0x00 0x00 0x00 0x01
[16:35:47.611] Extended ID: 0x03FF1001  DLC: 8  Data: 0x00 0x00 0x00 0x00 0x00 0x00 0x00 0x00
[16:35:47.621] Extended ID: 0x03FF1603  DLC: 8  Data: 0x00 0x00 0xCD 0x23 0x00 0x00 0x00 0x00
[16:35:47.632] Extended ID: 0x03FF1605  DLC: 8  Data: 0x01 0x00 0x00 0x00 0x00 0x00 0x00 0x00
[16:35:47.705] Extended ID: 0x03FF1000  DLC: 8  Data: 0x00 0x00 0x11 0x22 0x00 0x00 0x00 0x01
[16:35:47.716] Extended ID: 0x03FF1001  DLC: 8  Data: 0x00 0x00 0x00 0x00 0x00 0x00 0x00 0x00
[16:35:47.726] Extended ID: 0x03FF1603  DLC: 8  Data: 0x00 0x00 0xCD 0x23 0x00 0x00 0x00 0x00
[16:35:47.737] Extended ID: 0x03FF1605  DLC: 8  Data: 0x01 0x00 0x00 0x00 0x00 0x00 0x00 0x00
[16:35:47.790] Extended ID: 0x05FF4610  DLC: 8  Data: 0x00 0x00 0xCC 0x8D 0xFF 0xFF 0xFF 0x9D
[16:35:47.810] Extended ID: 0x03FF1000  DLC: 8  Data: 0x00 0x00 0x11 0x22 0x00 0x00 0x00 0x01
[16:35:47.821] Extended ID: 0x03FF1001  DLC: 8  Data: 0x00 0x00 0x00 0x00 0x00 0x00 0x00 0x00
[16:35:47.831] Extended ID: 0x03FF1603  DLC: 8  Data: 0x00 0x00 0xCD 0x23 0x00 0x00 0x00 0x00
[16:35:47.842] Extended ID: 0x03FF1605  DLC: 8  Data: 0x01 0x00 0x00 0x00 0x00 0x00 0x00 0x00
[16:35:47.915] Extended ID: 0x03FF1000  DLC: 8  Data: 0x00 0x00 0x11 0x22 0x00 0x00 0x00 0x01
[16:35:47.920] Extended ID: 0x04FF3602  DLC: 8  Data: 0x00 0x00 0x00 0x00 0x00 0x00 0x00 0x00
[16:35:47.929] Extended ID: 0x03FF1001  DLC: 8  Data: 0x00 0x00 0x00 0x00 0x00 0x00 0x00 0x00
[16:35:47.934] Extended ID: 0x03FF1603  DLC: 8  Data: 0x00 0x00 0xCD 0x23 0x00 0x00 0x00 0x00
[16:35:47.947] Extended ID: 0x03FF1605  DLC: 8  Data: 0x01 0x00 0x00 0x00 0x00 0x00 0x00 0x00
[16:35:48.017] Extended ID: 0x02181606  DLC: 8  Data: 0x01 0x00 0x19 0x00 0x01 0x03 0x02 0x00
[16:35:48.022] Extended ID: 0x03FF1000  DLC: 8  Data: 0x00 0x00 0x11 0x22 0x00 0x00 0x00 0x01
[16:35:48.031] Extended ID: 0x03FF1001  DLC: 8  Data: 0x00 0x00 0x00 0x00 0x00 0x00 0x00 0x00
[16:35:48.041] Extended ID: 0x03FF1603  DLC: 8  Data: 0x00 0x00 0xCD 0x23 0x00 0x00 0x00 0x00
[16:35:48.046] Extended ID: 0x02203606  DLC: 8  Data: 0x01 0x01 0x00 0x01 0x00 0x01 0x00 0x00
[16:35:48.054] Extended ID: 0x05FF4610  DLC: 8  Data: 0x00 0x00 0xCC 0x8D 0xFF 0xFF 0xFF 0x9D
[16:35:48.060] Extended ID: 0x03FF1605  DLC: 8  Data: 0x01 0x00 0x00 0x00 0x00 0x00 0x00 0x00
[16:35:48.074] Extended ID: 0x02181608  DLC: 8  Data: 0x05 0x00 0x00 0x00 0x01 0x00 0x00 0x00
[16:35:48.104] Extended ID: 0x02181609  DLC: 8  Data: 0x00 0x00 0x00 0x00 0x00 0x00 0x00 0x00
[16:35:48.125] Extended ID: 0x03FF1000  DLC: 8  Data: 0x00 0x00 0x11 0x22 0x00 0x00 0x00 0x01
[16:35:48.135] Extended ID: 0x03FF1001  DLC: 8  Data: 0x00 0x00 0x00 0x00 0x00 0x00 0x00 0x00
[16:35:48.141] Extended ID: 0x02488600  DLC: 8  Data: 0x00 0x00 0x00 0x00 0x00 0x00 0x00 0x00
[16:35:48.149] Extended ID: 0x03FF1603  DLC: 8  Data: 0x00 0x00 0xCD 0x23 0x00 0x00 0x00 0x00
[16:35:48.155] Extended ID: 0x03FF1605  DLC: 8  Data: 0x01 0x00 0x00 0x00 0x00 0x00 0x00 0x00
[16:35:48.161] Extended ID: 0x02213600  DLC: 0  Data:
[16:35:48.168] Extended ID: 0x03121606  DLC: 8  Data: 0x00 0x00 0x00 0x00 0x00 0x00 0x00 0x00
[16:35:48.230] Extended ID: 0x03FF1000  DLC: 8  Data: 0x00 0x00 0x11 0x22 0x00 0x00 0x00 0x01
[16:35:48.241] Extended ID: 0x03FF1001  DLC: 8  Data: 0x00 0x00 0x00 0x00 0x00 0x00 0x00 0x00
[16:35:48.251] Extended ID: 0x03FF1603  DLC: 8  Data: 0x00 0x00 0xCD 0x23 0x00 0x00 0x00 0x00
[16:35:48.262] Extended ID: 0x03FF1605  DLC: 8  Data: 0x01 0x00 0x00 0x00 0x00 0x00 0x00 0x00
[16:35:48.270] Extended ID: 0x05FF4001  DLC: 8  Data: 0x00 0x00 0x00 0x00 0x00 0x00 0x00 0x00
[16:35:48.276] Extended ID: 0x03FF1600  DLC: 8  Data: 0x14 0x2B 0x00 0x01 0x04 0x00 0x13 0x19
[16:35:48.284] Extended ID: 0x05FF4000  DLC: 8  Data: 0x00 0x00 0x00 0x00 0x00 0x00 0x00 0x00
[16:35:48.289] Extended ID: 0x03FF1601  DLC: 8  Data: 0x6E 0x50 0x00 0x00 0x00 0x00 0x00 0x00
[16:35:48.297] Extended ID: 0x03FF1602  DLC: 8  Data: 0x01 0x8C 0x71 0x00 0x00 0x00 0x00 0x00
[16:35:48.303] Extended ID: 0x03FF1604  DLC: 8  Data: 0x00 0x00 0x00 0x00 0x00 0x00 0x00 0x00
[16:35:48.312] Extended ID: 0x05FF4610  DLC: 8  Data: 0x00 0x00 0xCC 0x8D 0xFF 0xFF 0xFF 0x9D
[16:35:48.335] Extended ID: 0x03FF1000  DLC: 8  Data: 0x00 0x00 0x11 0x22 0x00 0x00 0x00 0x01
[16:35:48.345] Extended ID: 0x03FF1001  DLC: 8  Data: 0x00 0x00 0x00 0x00 0x00 0x00 0x00 0x00
[16:35:48.351] Extended ID: 0x05FF4602  DLC: 8  Data: 0xB7 0x0F 0xB5 0x0F 0xB7 0x0F 0xB5 0x0F
[16:35:48.359] Extended ID: 0x03FF1603  DLC: 8  Data: 0x00 0x00 0xCD 0x23 0x00 0x00 0x00 0x00
[16:35:48.364] Extended ID: 0x05FF4603  DLC: 8  Data: 0xB4 0x0F 0xBE 0x0F 0xBD 0x0F 0xBE 0x0F
[16:35:48.373] Extended ID: 0x03FF1605  DLC: 8  Data: 0x01 0x00 0x00 0x00 0x00 0x00 0x00 0x00
[16:35:48.378] Extended ID: 0x05FF4604  DLC: 8  Data: 0xC0 0x0F 0xC1 0x0F 0xC2 0x0F 0xC2 0x0F
[16:35:48.387] Extended ID: 0x05FF4605  DLC: 8  Data: 0xC3 0x0F 0x00 0x00 0x00 0x00 0x00 0x00
[16:35:48.410] Extended ID: 0x05FF4606  DLC: 3  Data: 0x11 0x11 0x10
[16:35:48.419] Extended ID: 0x05FF4607  DLC: 3  Data: 0x10 0x13 0x10
[16:35:48.427] Extended ID: 0x04FF3602  DLC: 8  Data: 0x00 0x00 0x00 0x00 0x00 0x00 0x00 0x00
[16:35:48.434] Extended ID: 0x05FF4608  DLC: 4  Data: 0x00 0x19 0x00 0x7C
[16:35:48.439] Extended ID: 0x03FF1000  DLC: 8  Data: 0x00 0x00 0x11 0x22 0x00 0x00 0x00 0x01
[16:35:48.445] Extended ID: 0x05FF4609  DLC: 7  Data: 0x03 0x00 0x03 0x52 0x03 0xD4 0x00
[16:35:48.454] Extended ID: 0x03FF1001  DLC: 8  Data: 0x00 0x00 0x00 0x00 0x00 0x00 0x00 0x00
[16:35:48.461] Extended ID: 0x03FF1603  DLC: 8  Data: 0x00 0x00 0xCD 0x23 0x00 0x00 0x00 0x00
[16:35:48.471] Extended ID: 0x03FF1605  DLC: 8  Data: 0x01 0x00 0x00 0x00 0x00 0x00 0x00 0x00
[16:35:48.477] Extended ID: 0x02FF2605  DLC: 8  Data: 0x00 0x00 0x05 0x01 0x07 0x06 0x05 0x04
[16:35:48.505] Extended ID: 0x02FF2604  DLC: 8  Data: 0x00 0x00 0x00 0x00 0x00 0x00 0x00 0x00
[16:35:48.535] Extended ID: 0x02FF2704  DLC: 8  Data: 0x02 0x00 0x00 0x00 0x00 0x00 0x00 0x00
[16:35:48.545] Extended ID: 0x03FF1000  DLC: 8  Data: 0x00 0x00 0x11 0x22 0x00 0x00 0x00 0x01
[16:35:48.556] Extended ID: 0x03FF1001  DLC: 8  Data: 0x00 0x00 0x00 0x00 0x00 0x00 0x00 0x00
[16:35:48.564] Extended ID: 0x0260B606  DLC: 8  Data: 0x01 0x00 0x00 0x00 0x00 0x00 0x00 0x00
[16:35:48.570] Extended ID: 0x03FF1603  DLC: 8  Data: 0x00 0x00 0xCD 0x23 0x00 0x00 0x00 0x00
[16:35:48.578] Extended ID: 0x05FF4610  DLC: 8  Data: 0x00 0x00 0xCC 0x8D 0xFF 0xFF 0xFF 0x9D
[16:35:48.583] Extended ID: 0x03FF1605  DLC: 8  Data: 0x01 0x00 0x00 0x00 0x00 0x00 0x00 0x00
[16:35:48.589] Extended ID: 0x05FF4400  DLC: 4  Data: 0x00 0x00 0x00 0x0B
[16:35:48.596] Extended ID: 0x02203607  DLC: 5  Data: 0x00 0x00 0x00 0x03 0x00
[16:35:48.633] Extended ID: 0x05FF4600  DLC: 6  Data: 0x0D 0x03 0x00 0x93 0x03 0x03
[16:35:48.650] Extended ID: 0x03FF1000  DLC: 8  Data: 0x00 0x00 0x11 0x22 0x00 0x00 0x00 0x01
[16:35:48.661] Extended ID: 0x03FF1001  DLC: 8  Data: 0x00 0x00 0x00 0x00 0x00 0x00 0x00 0x00
[16:35:48.671] Extended ID: 0x03FF1603  DLC: 8  Data: 0x00 0x00 0xCD 0x23 0x00 0x00 0x00 0x00
[16:35:48.682] Extended ID: 0x03FF1605  DLC: 8  Data: 0x01 0x00 0x00 0x00 0x00 0x00 0x00 0x00
[16:35:48.708] Extended ID: 0x05FF4601  DLC: 6  Data: 0x00 0xDC 0x00 0x00 0x00 0x00
[16:35:48.755] Extended ID: 0x03FF1000  DLC: 8  Data: 0x00 0x00 0x11 0x22 0x00 0x00 0x00 0x01
[16:35:48.764] Extended ID: 0x02181606  DLC: 8  Data: 0x01 0x00 0x19 0x00 0x01 0x03 0x02 0x00
[16:35:48.770] Extended ID: 0x03FF1001  DLC: 8  Data: 0x00 0x00 0x00 0x00 0x00 0x00 0x00 0x00
[16:35:48.779] Extended ID: 0x03FF1603  DLC: 8  Data: 0x00 0x00 0xCD 0x23 0x00 0x00 0x00 0x00
[16:35:48.785] Extended ID: 0x03FF1605  DLC: 8  Data: 0x01 0x00 0x00 0x00 0x00 0x00 0x00 0x00
[16:35:48.795] Extended ID: 0x02203606  DLC: 8  Data: 0x01 0x01 0x00 0x01 0x00 0x01 0x00 0x00
[16:35:48.825] Extended ID: 0x02181608  DLC: 8  Data: 0x05 0x00 0x00 0x00 0x01 0x00 0x00 0x00
[16:35:48.854] Extended ID: 0x02181609  DLC: 8  Data: 0x00 0x00 0x00 0x00 0x00 0x00 0x00 0x00
[16:35:48.860] Extended ID: 0x05FF4610  DLC: 8  Data: 0x00 0x00 0xCC 0x8E 0xFF 0xFF 0xFF 0x9D
[16:35:48.868] Extended ID: 0x03FF1000  DLC: 8  Data: 0x00 0x00 0x11 0x22 0x00 0x00 0x00 0x01
[16:35:48.874] Extended ID: 0x03FF1001  DLC: 8  Data: 0x00 0x00 0x00 0x00 0x00 0x00 0x00 0x00
[16:35:48.882] Extended ID: 0x03FF1603  DLC: 8  Data: 0x00 0x00 0xCD 0x23 0x00 0x00 0x00 0x00
[16:35:48.887] Extended ID: 0x02488600  DLC: 8  Data: 0x00 0x00 0x00 0x00 0x00 0x00 0x00 0x00
[16:35:48.895] Extended ID: 0x03FF1605  DLC: 8  Data: 0x01 0x00 0x00 0x00 0x00 0x00 0x00 0x00
[16:35:48.901] Extended ID: 0x03121606  DLC: 8  Data: 0x00 0x00 0x00 0x00 0x00 0x00 0x00 0x00
[16:35:48.911] Extended ID: 0x02213601  DLC: 0  Data:
[16:35:48.927] Extended ID: 0x04FF3602  DLC: 8  Data: 0x00 0x00 0x00 0x00 0x00 0x00 0x00 0x00
[16:35:48.965] Extended ID: 0x03FF1000  DLC: 8  Data: 0x00 0x00 0x11 0x22 0x00 0x00 0x00 0x01
[16:35:48.976] Extended ID: 0x03FF1001  DLC: 8  Data: 0x00 0x00 0x00 0x00 0x00 0x00 0x00 0x00
[16:35:48.986] Extended ID: 0x03FF1603  DLC: 8  Data: 0x00 0x00 0xCD 0x23 0x00 0x00 0x00 0x00
[16:35:48.997] Extended ID: 0x03FF1605  DLC: 8  Data: 0x01 0x00 0x00 0x00 0x00 0x00 0x00 0x00
[16:35:49.070] Extended ID: 0x03FF1000  DLC: 8  Data: 0x00 0x00 0x11 0x22 0x00 0x00 0x00 0x01
[16:35:49.081] Extended ID: 0x03FF1001  DLC: 8  Data: 0x00 0x00 0x00 0x00 0x00 0x00 0x00 0x00
[16:35:49.091] Extended ID: 0x03FF1603  DLC: 8  Data: 0x00 0x00 0xCD 0x23 0x00 0x00 0x00 0x00
[16:35:49.102] Extended ID: 0x03FF1605  DLC: 8  Data: 0x01 0x00 0x00 0x00 0x00 0x00 0x00 0x00
[16:35:49.120] Extended ID: 0x05FF4610  DLC: 8  Data: 0x00 0x00 0xCC 0x8E 0xFF 0xFF 0xFF 0x9D
[16:35:49.175] Extended ID: 0x03FF1000  DLC: 8  Data: 0x00 0x00 0x11 0x22 0x00 0x00 0x00 0x01
[16:35:49.186] Extended ID: 0x03FF1001  DLC: 8  Data: 0x00 0x00 0x00 0x00 0x00 0x00 0x00 0x00
[16:35:49.196] Extended ID: 0x03FF1603  DLC: 8  Data: 0x00 0x00 0xCD 0x23 0x00 0x00 0x00 0x00
[16:35:49.207] Extended ID: 0x03FF1605  DLC: 8  Data: 0x01 0x00 0x00 0x00 0x00 0x00 0x00 0x00
[16:35:49.249] Extended ID: 0x03FF1600  DLC: 8  Data: 0x14 0x2B 0x00 0x01 0x04 0x00 0x13 0x19
[16:35:49.259] Extended ID: 0x03FF1601  DLC: 8  Data: 0x6E 0x50 0x00 0x00 0x00 0x00 0x00 0x00
[16:35:49.270] Extended ID: 0x03FF1602  DLC: 8  Data: 0x01 0x8C 0x71 0x00 0x00 0x00 0x00 0x00
[16:35:49.280] Extended ID: 0x03FF1604  DLC: 8  Data: 0x00 0x00 0x00 0x00 0x00 0x00 0x00 0x00
[16:35:49.290] Extended ID: 0x03FF1000  DLC: 8  Data: 0x00 0x00 0x11 0x22 0x00 0x00 0x00 0x01
[16:35:49.296] Extended ID: 0x05FF4001  DLC: 8  Data: 0x00 0x00 0x00 0x00 0x00 0x00 0x00 0x00
[16:35:49.304] Extended ID: 0x05FF4000  DLC: 8  Data: 0x00 0x00 0x00 0x00 0x00 0x00 0x00 0x00
[16:35:49.309] Extended ID: 0x03FF1001  DLC: 8  Data: 0x00 0x00 0x00 0x00 0x00 0x00 0x00 0x00
[16:35:49.317] Extended ID: 0x03FF1603  DLC: 8  Data: 0x00 0x00 0xCD 0x23 0x00 0x00 0x00 0x00
[16:35:49.323] Extended ID: 0x03FF1605  DLC: 8  Data: 0x01 0x00 0x00 0x00 0x00 0x00 0x00 0x00
[16:35:49.379] Extended ID: 0x05FF4602  DLC: 8  Data: 0xB8 0x0F 0xB5 0x0F 0xB7 0x0F 0xB5 0x0F
[16:35:49.384] Extended ID: 0x05FF4610  DLC: 8  Data: 0x00 0x00 0xCC 0x8E 0xFF 0xFF 0xFF 0x9D
[16:35:49.392] Extended ID: 0x03FF1000  DLC: 8  Data: 0x00 0x00 0x11 0x22 0x00 0x00 0x00 0x01
[16:35:49.398] Extended ID: 0x05FF4603  DLC: 8  Data: 0xB5 0x0F 0xBD 0x0F 0xBD 0x0F 0xBE 0x0F
[16:35:49.406] Extended ID: 0x03FF1001  DLC: 8  Data: 0x00 0x00 0x00 0x00 0x00 0x00 0x00 0x00
[16:35:49.411] Extended ID: 0x03FF1603  DLC: 8  Data: 0x00 0x00 0xCD 0x23 0x00 0x00 0x00 0x00
[16:35:49.419] Extended ID: 0x05FF4605  DLC: 8  Data: 0xC3 0x0F 0x00 0x00 0x00 0x00 0x00 0x00
[16:35:49.425] Extended ID: 0x03FF1605  DLC: 8  Data: 0x01 0x00 0x00 0x00 0x00 0x00 0x00 0x00
[16:35:49.433] Extended ID: 0x05FF4604  DLC: 8  Data: 0xBF 0x0F 0xC1 0x0F 0xC3 0x0F 0xC2 0x0F
[16:35:49.439] Extended ID: 0x04FF3602  DLC: 8  Data: 0x00 0x00 0x00 0x00 0x00 0x00 0x00 0x00
[16:35:49.444] Extended ID: 0x05FF4606  DLC: 3  Data: 0x11 0x11 0x10
[16:35:49.450] Extended ID: 0x05FF4607  DLC: 3  Data: 0x10 0x14 0x10
[16:35:49.457] Extended ID: 0x05FF4608  DLC: 4  Data: 0x00 0x19 0x00 0x7C
[16:35:49.468] Extended ID: 0x05FF4609  DLC: 7  Data: 0x03 0x00 0x03 0x52 0x03 0xD4 0x00
[16:35:49.485] Extended ID: 0x02FF2605  DLC: 8  Data: 0x00 0x00 0x05 0x01 0x07 0x06 0x05 0x05
[16:35:49.491] Extended ID: 0x03FF1000  DLC: 8  Data: 0x00 0x00 0x11 0x22 0x00 0x00 0x00 0x01
[16:35:49.501] Extended ID: 0x03FF1001  DLC: 8  Data: 0x00 0x00 0x00 0x00 0x00 0x00 0x00 0x00
[16:35:49.511] Extended ID: 0x03FF1603  DLC: 8  Data: 0x00 0x00 0xCD 0x23 0x00 0x00 0x00 0x00
[16:35:49.516] Extended ID: 0x02FF2604  DLC: 8  Data: 0x00 0x00 0x00 0x00 0x00 0x00 0x00 0x00
[16:35:49.525] Extended ID: 0x03FF1605  DLC: 8  Data: 0x01 0x00 0x00 0x00 0x00 0x00 0x00 0x00
[16:35:49.548] Extended ID: 0x02FF2704  DLC: 8  Data: 0x02 0x00 0x00 0x00 0x00 0x00 0x00 0x00
[16:35:49.576] Extended ID: 0x0260B606  DLC: 8  Data: 0x01 0x00 0x00 0x00 0x00 0x00 0x00 0x00
[16:35:49.595] Extended ID: 0x03FF1000  DLC: 8  Data: 0x00 0x00 0x11 0x22 0x00 0x00 0x00 0x01
[16:35:49.605] Extended ID: 0x02203607  DLC: 5  Data: 0x00 0x00 0x00 0x03 0x00
[16:35:49.610] Extended ID: 0x03FF1001  DLC: 8  Data: 0x00 0x00 0x00 0x00 0x00 0x00 0x00 0x00
[16:35:49.618] Extended ID: 0x03FF1603  DLC: 8  Data: 0x00 0x00 0xCD 0x23 0x00 0x00 0x00 0x00
[16:35:49.627] Extended ID: 0x03FF1605  DLC: 8  Data: 0x01 0x00 0x00 0x00 0x00 0x00 0x00 0x00
[16:35:49.636] Extended ID: 0x02181606  DLC: 8  Data: 0x01 0x00 0x19 0x00 0x01 0x03 0x02 0x00
[16:35:49.651] Extended ID: 0x05FF4610  DLC: 8  Data: 0x00 0x00 0xCC 0x8E 0xFF 0xFF 0xFF 0x9D
[16:35:49.674] Extended ID: 0x02203606  DLC: 8  Data: 0x01 0x01 0x00 0x01 0x00 0x01 0x00 0x00
[16:35:49.695] Extended ID: 0x02181608  DLC: 8  Data: 0x05 0x00 0x00 0x00 0x01 0x00 0x00 0x00
[16:35:49.701] Extended ID: 0x03FF1000  DLC: 8  Data: 0x00 0x00 0x11 0x22 0x00 0x00 0x00 0x01
[16:35:49.711] Extended ID: 0x03FF1001  DLC: 8  Data: 0x00 0x00 0x00 0x00 0x00 0x00 0x00 0x00
[16:35:49.721] Extended ID: 0x03FF1603  DLC: 8  Data: 0x00 0x00 0xCD 0x23 0x00 0x00 0x00 0x00
[16:35:49.726] Extended ID: 0x02181609  DLC: 8  Data: 0x00 0x00 0x00 0x00 0x00 0x00 0x00 0x00
[16:35:49.735] Extended ID: 0x03FF1605  DLC: 8  Data: 0x01 0x00 0x00 0x00 0x00 0x00 0x00 0x00
[16:35:49.740] Extended ID: 0x03121606  DLC: 8  Data: 0x00 0x00 0x00 0x00 0x00 0x00 0x00 0x00
[16:35:49.756] Extended ID: 0x02488600  DLC: 8  Data: 0x00 0x00 0x00 0x00 0x00 0x00 0x00 0x00
[16:35:49.782] Extended ID: 0x02294611  DLC: 0  Data:
[16:35:49.789] Extended ID: 0x05124611  DLC: 8  Data: 0x00 0x62 0x38 0x48 0x00 0x00 0x2F 0xB7
[16:35:49.805] Extended ID: 0x03FF1000  DLC: 8  Data: 0x00 0x00 0x11 0x22 0x00 0x00 0x00 0x01
[16:35:49.816] Extended ID: 0x03FF1001  DLC: 8  Data: 0x00 0x00 0x00 0x00 0x00 0x00 0x00 0x00
[16:35:49.826] Extended ID: 0x03FF1603  DLC: 8  Data: 0x00 0x00 0xCD 0x23 0x00 0x00 0x00 0x00
[16:35:49.837] Extended ID: 0x03FF1605  DLC: 8  Data: 0x01 0x00 0x00 0x00 0x00 0x00 0x00 0x00
[16:35:49.910] Extended ID: 0x03FF1000  DLC: 8  Data: 0x00 0x00 0x11 0x22 0x00 0x00 0x00 0x01
[16:35:49.922] Extended ID: 0x03FF1001  DLC: 8  Data: 0x00 0x00 0x00 0x00 0x00 0x00 0x00 0x00
[16:35:49.928] Extended ID: 0x05FF4610  DLC: 8  Data: 0x00 0x00 0xCC 0x8D 0xFF 0xFF 0xFF 0x98
[16:35:49.936] Extended ID: 0x03FF1603  DLC: 8  Data: 0x00 0x00 0xCD 0x23 0x00 0x00 0x00 0x00
[16:35:49.941] Extended ID: 0x04FF3602  DLC: 8  Data: 0x00 0x00 0x00 0x00 0x00 0x00 0x00 0x00
[16:35:49.950] Extended ID: 0x03FF1605  DLC: 8  Data: 0x01 0x00 0x00 0x00 0x00 0x00 0x00 0x00
[16:35:50.015] Extended ID: 0x03FF1000  DLC: 8  Data: 0x00 0x00 0x11 0x22 0x00 0x00 0x00 0x01
[16:35:50.026] Extended ID: 0x03FF1001  DLC: 8  Data: 0x00 0x00 0x00 0x00 0x00 0x00 0x00 0x00
[16:35:50.036] Extended ID: 0x03FF1603  DLC: 8  Data: 0x00 0x00 0xCD 0x23 0x00 0x00 0x00 0x00
[16:35:50.047] Extended ID: 0x03FF1605  DLC: 8  Data: 0x01 0x00 0x00 0x00 0x00 0x00 0x00 0x00
[16:35:50.120] Extended ID: 0x03FF1000  DLC: 8  Data: 0x00 0x00 0x11 0x22 0x00 0x00 0x00 0x01
